! Mini-Circuits								
! S2P DATA File Format								
! Type: LOW PASS FILTER								
! Model: SLP-1.9+								
! All S Parameters are in dB deg format								
! TEST CONDITIONS: INPUT POWER = 0 dBm @ Temperature = +25deg C								
!								
# MHz S DB R 50								
!								
!FREQ   MAG(S11)PHS(S11) MAG(S21)PHS(S21)MAG(S12)PHS(S12)MAG(S22)PHS(S22)								
0.0	-28.727	-000.000	-0.092	 00.000	-0.094	 00.000	-28.793	 000.000
0.3	-28.727	-116.872	-0.092	-36.332	-0.094	-36.291	-28.793	-114.802
0.4	-25.978	-131.906	-0.097	-48.469	-0.096	-48.439	-26.121	-129.149
0.5	-23.829	-146.063	-0.11	-60.682	-0.11	-60.687	-23.952	-142.733
0.6	-22.103	-159.798	-0.133	-72.966	-0.128	-72.976	-22.204	-156.047
0.7	-20.709	-173.333	-0.158	-85.332	-0.15	-85.343	-20.785	-169.204
0.8	-19.605	173.304	-0.182	-97.766	-0.177	-97.796	-19.684	177.76
0.9	-18.828	159.966	-0.21	-110.322	-0.207	-110.328	-18.893	164.675
1	-18.371	146.603	-0.236	-122.996	-0.23	-123.005	-18.418	151.626
1.1	-18.284	133.125	-0.258	-135.83	-0.249	-135.865	-18.321	138.618
1.2	-18.65	119.495	-0.273	-148.868	-0.268	-148.873	-18.674	125.528
1.3	-19.606	105.491	-0.283	-162.173	-0.282	-162.192	-19.621	112.444
1.4	-21.461	90.845	-0.292	-175.835	-0.29	-175.817	-21.457	99.445
1.5	-24.928	74.818	-0.301	170.12	-0.301	170.145	-24.891	87.085
1.6	-32.979	51.948	-0.321	155.613	-0.319	155.634	-32.814	80.102
1.7	-35.106	-111.88	-0.355	140.605	-0.349	140.618	-35.573	-143.374
1.8	-25.214	-139.17	-0.404	125.069	-0.403	125.076	-25.345	-146.5
1.9	-21.388	-156.783	-0.472	108.911	-0.468	108.916	-21.477	-159.418
2	-20.106	-172.741	-0.545	91.985	-0.541	92.004	-20.168	-173.046
2.1	-21.561	173.95	-0.612	73.919	-0.61	73.95	-21.551	176.232
2.2	-29.978	-164.973	-0.699	54.089	-0.696	54.095	-28.49	-157.409
2.3	-18.783	-79.255	-0.922	31.515	-0.921	31.522	-18.452	-84.568
2.4	-10.16	-95.739	-1.581	5.744	-1.575	5.786	-10.082	-98.416
2.5	-5.439	-120.314	-3.038	-21.597	-3.032	-21.529	-5.408	-121.99
2.6	-2.91	-144.426	-5.374	-47.05	-5.368	-46.987	-2.896	-145.572
2.7	-1.663	-164.799	-8.263	-68.161	-8.251	-68.153	-1.652	-165.609
2.8	-1.063	178.977	-11.316	-84.856	-11.307	-84.866	-1.06	178.389
2.9	-0.768	165.999	-14.323	-98.114	-14.312	-98.135	-0.762	165.595
3	-0.613	155.466	-17.203	-108.832	-17.191	-108.868	-0.611	155.174
3.1	-0.525	146.624	-19.929	-117.763	-19.918	-117.788	-0.521	146.46
3.2	-0.47	139.099	-22.51	-125.357	-22.495	-125.406	-0.465	138.994
3.3	-0.429	132.554	-24.949	-131.923	-24.943	-131.965	-0.432	132.51
3.4	-0.408	126.743	-27.277	-137.745	-27.263	-137.773	-0.403	126.759
3.5	-0.39	121.565	-29.493	-142.893	-29.484	-142.921	-0.389	121.63
3.6	-0.375	116.898	-31.608	-147.534	-31.598	-147.597	-0.375	116.989
3.7	-0.362	112.65	-33.644	-151.726	-33.637	-151.825	-0.363	112.77
3.8	-0.351	108.755	-35.586	-155.638	-35.581	-155.625	-0.354	108.907
3.9	-0.344	105.17	-37.469	-159.132	-37.459	-159.109	-0.341	105.33
4	-0.333	101.863	-39.279	-162.365	-39.273	-162.416	-0.336	102.027
4.1	-0.331	98.761	-41.029	-165.458	-41.013	-165.569	-0.332	98.97
4.2	-0.323	95.871	-42.73	-168.169	-42.714	-168.217	-0.324	96.077
4.3	-0.318	93.17	-44.377	-170.791	-44.365	-170.87	-0.322	93.391
4.4	-0.313	90.632	-45.968	-173.354	-45.97	-173.337	-0.313	90.86
4.5	-0.306	88.262	-47.52	-175.59	-47.554	-175.518	-0.311	88.498
4.6	-0.304	86.017	-49.041	-177.689	-49.043	-177.819	-0.308	86.25
4.7	-0.3	83.873	-50.518	-179.871	-50.533	179.994	-0.304	84.135
4.8	-0.296	81.846	-51.929	178.151	-51.941	178.396	-0.299	82.116
4.9	-0.294	79.94	-53.323	176.447	-53.377	176.255	-0.294	80.2
5	-0.292	78.105	-54.715	174.877	-54.704	174.612	-0.294	78.386
6	-0.265	63.746	-67.274	160.999	-67.507	160.547	-0.269	64.035
7	-0.251	53.942	-78.271	156.454	-78.922	164.069	-0.252	54.218
8	-0.239	46.735	-91.686	162.18	-92.732	-165.591	-0.241	47.021
9	-0.229	41.206	-101.498	-160.88	-93.684	-86.639	-0.233	41.5
10	-0.225	36.82	-95.558	-71.026	-90.132	-38.582	-0.224	37.094
11	-0.218	33.233	-97.479	-70.316	-88.278	-56.261	-0.218	33.506
12	-0.212	30.241	-93.52	-47.961	-93.459	-74.8	-0.213	30.5
13	-0.208	27.695	-93.493	-63.026	-92.223	-61.603	-0.208	27.969
14	-0.206	25.525	-92.327	-74.154	-96.491	-74.264	-0.207	25.778
15	-0.202	23.618	-98.169	-51.95	-89.984	-76.106	-0.205	23.886
16	-0.2	21.946	-96.787	-91.819	-96.496	-51.035	-0.201	22.223
17	-0.196	20.459	-94.939	-68.33	-93.659	-68.442	-0.198	20.738
18	-0.194	19.132	-90.927	-90.162	-98.994	-106.852	-0.196	19.399
19	-0.194	17.923	-104.668	1.613	-103.171	-66.658	-0.195	18.197
20	-0.193	16.842	-100.786	-98.239	-96.298	-61.884	-0.192	17.116
21	-0.191	15.842	-96.885	-128.41	-93.909	-48.039	-0.193	16.129
22	-0.19	14.932	-95.79	-78.941	-96.504	-38.873	-0.189	15.208
23	-0.186	14.104	-105.317	-44.843	-92.402	-95.013	-0.19	14.372
24	-0.187	13.31	-96.465	-89.332	-95.408	-77.201	-0.187	13.621
25	-0.184	12.604	-92.18	-76.504	-100.432	-36.613	-0.188	12.874
26	-0.186	11.904	-93.362	-116.364	-97.108	-135.154	-0.189	12.205
27	-0.183	11.279	-95.271	-82.663	-97.837	-119.712	-0.188	11.571
28	-0.185	10.674	-92.837	-60.598	-91.488	-64.193	-0.186	10.996
29	-0.184	10.115	-93.233	-93.85	-98.471	6.875	-0.187	10.445
30	-0.183	9.584	-94.231	-14.155	-93.908	-68.622	-0.186	9.909
31	-0.183	9.078	-102.321	-42.363	-93.205	-113.231	-0.186	9.416
32	-0.183	8.603	-102.394	55.21	-108.534	60.366	-0.184	8.933
33	-0.183	8.151	-91.621	-95.515	-96.644	-90.709	-0.185	8.486
34	-0.183	7.708	-91.018	-53.15	-109.192	-55.633	-0.185	8.067
35	-0.185	7.307	-98.975	-33.163	-106.975	165.684	-0.185	7.663
36	-0.184	6.896	-98.781	-18.88	-92.887	-54.19	-0.187	7.268
37	-0.183	6.532	-100.578	36.977	-93.704	7.683	-0.185	6.902
38	-0.183	6.161	-108.883	179.552	-101.366	-128.22	-0.184	6.527
39	-0.183	5.82	-108.07	84.043	-108.457	-77.731	-0.186	6.198
40	-0.185	5.464	-100.156	-108.442	-109.172	-117.252	-0.187	5.862
41	-0.184	5.15	-96.051	16.044	-95.282	0.418	-0.184	5.53
42	-0.185	4.812	-103.248	-85.294	-101.707	-20.396	-0.184	5.232
43	-0.184	4.527	-106.046	-79.807	-98.197	-28.874	-0.184	4.926
44	-0.185	4.228	-95.812	-134.814	-105.583	-131.384	-0.187	4.647
45	-0.184	3.944	-95.919	9.881	-98.019	-40.723	-0.185	4.361
46	-0.184	3.674	-101.559	-4.838	-92.908	-163.3	-0.189	4.092
47	-0.187	3.391	-95.125	38.395	-90.568	151.341	-0.187	3.821
48	-0.183	3.145	-99.877	-79.589	-96.9	-39.252	-0.186	3.576
49	-0.187	2.878	-91.784	-113.087	-106.303	62.639	-0.188	3.327
50	-0.183	2.636	-93.515	-124.234	-92.839	-134.682	-0.189	3.081
51	-0.189	2.389	-88.689	-104.168	-94.517	11.006	-0.188	2.847
52	-0.187	2.145	-96.47	-6.182	-94.205	124.219	-0.19	2.63
53	-0.187	1.914	-105.228	-67.213	-103.509	-11.074	-0.191	2.39
54	-0.189	1.679	-109.607	-132.098	-97.592	-25.581	-0.19	2.173
55	-0.189	1.469	-102.627	-121.424	-94.253	-53.457	-0.191	1.941
56	-0.189	1.241	-101.963	-42.859	-98.203	-21.307	-0.188	1.75
57	-0.188	1.032	-96.154	-135.306	-94.501	-86.529	-0.191	1.536
58	-0.19	0.817	-94.668	8.358	-96.949	117.454	-0.192	1.339
59	-0.189	0.612	-97.475	-24.551	-99.319	-21.958	-0.19	1.128
60	-0.189	0.405	-99.464	2.335	-110.694	136.596	-0.192	0.943
61	-0.191	0.227	-102.352	144.977	-95.899	-88.611	-0.192	0.76
62	-0.191	0.022	-95.38	-136.766	-91.541	-41.102	-0.192	0.563
63	-0.192	-0.17	-98.231	65.052	-100.055	-123.662	-0.193	0.368
64	-0.19	-0.351	-97.846	32.54	-99.31	65.107	-0.19	0.208
65	-0.192	-0.543	-90.346	-67.544	-92.683	-174.046	-0.194	0.018
66	-0.191	-0.73	-95.392	-116.637	-94.639	-5.234	-0.191	-0.157
67	-0.191	-0.906	-94.781	-60.312	-101.999	-72.025	-0.193	-0.321
68	-0.192	-1.085	-104.489	151.822	-96.023	-138.534	-0.191	-0.504
69	-0.194	-1.264	-119.137	99.841	-99.268	23.28	-0.193	-0.66
70	-0.194	-1.433	-93.918	-121.66	-100.944	-164.723	-0.191	-0.84
71	-0.193	-1.6	-101.979	-15.912	-101.568	-75.967	-0.196	-0.984
72	-0.193	-1.768	-95.345	-105.4	-103.949	-63.266	-0.194	-1.155
73	-0.191	-1.923	-107.999	-105.104	-99.12	-70.046	-0.195	-1.322
74	-0.194	-2.114	-97.649	-1.104	-94.961	-164.108	-0.196	-1.473
75	-0.19	-2.246	-96.466	-130.677	-91.722	-84.811	-0.197	-1.623
76	-0.194	-2.43	-112.814	-150.764	-106.949	9.918	-0.195	-1.774
77	-0.193	-2.586	-99.132	-86.085	-97.029	-76.689	-0.197	-1.928
78	-0.195	-2.741	-103.388	-96.611	-99.825	-47.745	-0.198	-2.078
79	-0.194	-2.901	-110.041	13.693	-99.593	-37.016	-0.196	-2.227
80	-0.194	-3.046	-100.358	103.016	-104.067	52.944	-0.197	-2.37
81	-0.194	-3.196	-104.12	69.624	-99.882	-81.701	-0.197	-2.524
82	-0.195	-3.352	-104.737	56.81	-100.701	-91.242	-0.197	-2.66
83	-0.196	-3.517	-111.755	-153.136	-101.098	115.749	-0.198	-2.797
84	-0.195	-3.665	-106.951	-1.85	-96.133	-172.406	-0.197	-2.944
85	-0.196	-3.802	-97.321	-22.334	-97.538	-109.1	-0.198	-3.085
86	-0.194	-3.952	-107.373	23.636	-96.05	-64.041	-0.198	-3.213
87	-0.194	-4.086	-98.029	-164.096	-105.348	-100.97	-0.199	-3.368
88	-0.196	-4.233	-103.137	-61.269	-98.135	-33.974	-0.198	-3.502
89	-0.196	-4.377	-100.269	-150.738	-106.026	172.019	-0.199	-3.622
90	-0.196	-4.527	-98.856	-63.381	-100.229	-121.915	-0.198	-3.764
91	-0.196	-4.671	-93.105	-79.058	-103.456	5.375	-0.198	-3.894
92	-0.195	-4.801	-96.695	-95.531	-108.628	-25.963	-0.199	-4.018
93	-0.196	-4.949	-98.734	15.622	-96.635	-113.683	-0.199	-4.165
94	-0.197	-5.085	-98.747	-47.649	-106.551	-20.126	-0.198	-4.291
95	-0.196	-5.206	-102.415	15.896	-100.329	-98.828	-0.198	-4.428
96	-0.197	-5.347	-104.88	-141.967	-95.835	-87.233	-0.199	-4.551
97	-0.197	-5.492	-103.559	-43.067	-105.17	-110.287	-0.198	-4.678
98	-0.197	-5.63	-96.194	-77.4	-103.892	-60.999	-0.2	-4.815
99	-0.196	-5.755	-98.141	12.348	-105.162	-129.936	-0.195	-4.938
100	-0.197	-5.879	-94.797	-74.616	-94.298	5.966	-0.201	-5.059
101	-0.196	-6.02	-103.417	-34.281	-93.745	7.015	-0.2	-5.186
102	-0.196	-6.157	-101.062	-38.031	-98.995	-130.382	-0.2	-5.298
103	-0.197	-6.295	-102.728	35.811	-95.773	35.23	-0.201	-5.43
104	-0.194	-6.399	-99.257	-96.831	-101.934	-145.785	-0.202	-5.557
105	-0.194	-6.549	-98.815	-39.924	-105.578	-86.559	-0.201	-5.675
106	-0.198	-6.677	-110.29	153.558	-100.186	-51.553	-0.201	-5.786
107	-0.197	-6.8	-93.591	-30.639	-111.046	-155.333	-0.2	-5.915
108	-0.195	-6.93	-97.081	-54.199	-115.436	-148.489	-0.2	-6.029
109	-0.197	-7.055	-96.487	-15.223	-97.169	-107.244	-0.202	-6.146
110	-0.198	-7.18	-105.32	-14.724	-94.858	-131.482	-0.2	-6.263
111	-0.197	-7.315	-105.716	-84.75	-107.61	96.622	-0.201	-6.398
112	-0.199	-7.437	-98.674	-37.519	-99.849	-22.095	-0.201	-6.521
113	-0.198	-7.56	-96.973	176.729	-102.496	-146.185	-0.2	-6.631
114	-0.197	-7.676	-107.806	-61.55	-94.356	-72.11	-0.201	-6.743
115	-0.198	-7.808	-96.507	-13.575	-98.6	-106.423	-0.201	-6.854
116	-0.198	-7.932	-104.511	-40.868	-94.772	27.92	-0.203	-6.974
117	-0.198	-8.035	-100.282	-36.946	-106.22	26.677	-0.2	-7.077
118	-0.197	-8.17	-95.968	-19.296	-104.824	-83.074	-0.2	-7.205
119	-0.198	-8.293	-96.381	-88.881	-110.512	-69.622	-0.202	-7.326
120	-0.199	-8.41	-101.796	-5.634	-103.5	-107.872	-0.201	-7.443
121	-0.198	-8.535	-97.717	-156.45	-106.892	-22.505	-0.202	-7.549
122	-0.198	-8.662	-96.638	-147.34	-102.196	178.991	-0.199	-7.665
123	-0.197	-8.783	-101.564	-96.063	-96.25	162.696	-0.203	-7.77
124	-0.2	-8.891	-101.748	-98.843	-96.048	-25.822	-0.2	-7.895
125	-0.197	-9.024	-106.433	-64.024	-100.394	-160.677	-0.202	-8.006
126	-0.199	-9.142	-100.755	110.391	-93.001	-71.501	-0.202	-8.107
127	-0.197	-9.253	-103.772	-45.815	-108.211	-11.613	-0.202	-8.217
128	-0.196	-9.38	-94.411	-138.328	-95.688	-130.979	-0.202	-8.334
129	-0.197	-9.49	-102.74	169.034	-101.777	128.564	-0.202	-8.446
130	-0.197	-9.605	-101.294	-51.97	-99.158	-41.595	-0.203	-8.542
131	-0.195	-9.711	-97.008	-90.197	-103.865	-21.631	-0.202	-8.672
132	-0.197	-9.851	-101.454	-92.555	-99.206	-65.963	-0.202	-8.769
133	-0.196	-9.942	-98.002	-135.064	-99.305	-117.765	-0.203	-8.882
134	-0.196	-10.083	-98.869	-119.897	-90.516	-81.343	-0.204	-8.992
135	-0.197	-10.199	-95.413	-109.293	-101.649	135.131	-0.202	-9.105
136	-0.198	-10.318	-101.768	-129.582	-105.548	-67.805	-0.202	-9.208
137	-0.198	-10.43	-100.481	-126.682	-98.454	32.911	-0.204	-9.314
138	-0.197	-10.551	-97.711	-35	-101.498	60.151	-0.203	-9.424
139	-0.198	-10.662	-112.489	-64.43	-96.949	-92.957	-0.203	-9.533
140	-0.198	-10.772	-101.847	-131.67	-98.106	-90.67	-0.203	-9.642
141	-0.196	-10.885	-113.175	56.044	-100.187	-75.285	-0.203	-9.752
142	-0.196	-11.003	-101.065	127.06	-95.687	-83.453	-0.201	-9.846
143	-0.199	-11.111	-95.034	-109.262	-103.827	-80.48	-0.204	-9.955
144	-0.199	-11.221	-96.804	21.473	-102.654	-47.705	-0.203	-10.068
145	-0.197	-11.354	-88.732	-69.826	-93.73	-77.631	-0.204	-10.169
146	-0.197	-11.456	-97.744	-30.887	-101.845	90.735	-0.204	-10.287
147	-0.197	-11.567	-101.954	-81.81	-101.833	-95.543	-0.203	-10.378
148	-0.198	-11.69	-110.253	160.156	-102.559	-23.865	-0.204	-10.487
149	-0.197	-11.782	-107.503	-152.533	-104.403	-90.976	-0.201	-10.605
150	-0.199	-11.907	-101.935	-65.561	-91.883	-86.557	-0.203	-10.708
151	-0.199	-12.019	-101.867	-64.168	-103.517	-122.365	-0.202	-10.812
152	-0.198	-12.131	-100.369	-129.916	-101.559	57.999	-0.205	-10.909
153	-0.198	-12.243	-94.968	-105.198	-102.362	-167.433	-0.202	-11.02
154	-0.198	-12.354	-92.727	-117.633	-101.151	-167.636	-0.205	-11.13
155	-0.198	-12.463	-97.042	-136.469	-104.642	-38.032	-0.203	-11.225
156	-0.196	-12.572	-102.824	-128.013	-101.131	44.845	-0.202	-11.319
157	-0.197	-12.686	-100.742	-22.464	-102.964	-74.217	-0.205	-11.424
158	-0.197	-12.797	-96.24	-96.159	-99	-81.45	-0.204	-11.529
159	-0.197	-12.908	-107.714	-83.327	-96.569	-117.653	-0.206	-11.645
160	-0.196	-13.001	-103.426	-114.737	-106.65	-28.069	-0.204	-11.735
161	-0.198	-13.127	-94.662	-64.171	-97.047	-173.246	-0.206	-11.851
162	-0.197	-13.246	-100.433	-98.793	-100.232	-49.236	-0.205	-11.952
163	-0.196	-13.351	-96.243	-84.354	-101.096	76.827	-0.205	-12.037
164	-0.198	-13.458	-93.853	-78.465	-95.161	-50.727	-0.205	-12.145
165	-0.198	-13.551	-100.976	-13.742	-94.846	-134.441	-0.206	-12.256
166	-0.196	-13.674	-99.711	-65.894	-96.982	-115.642	-0.206	-12.342
167	-0.198	-13.788	-99.273	-110.099	-106.235	-168.912	-0.205	-12.45
168	-0.198	-13.912	-95.986	-135.348	-97.177	-83.116	-0.206	-12.548
169	-0.197	-14.009	-100.48	86.243	-101.977	60.058	-0.206	-12.654
170	-0.197	-14.12	-104.846	33.181	-93.515	-96.76	-0.206	-12.753
171	-0.198	-14.22	-97.845	-62.489	-119.565	-65.341	-0.206	-12.851
172	-0.197	-14.334	-110.468	-72.724	-95.714	-42.902	-0.207	-12.964
173	-0.196	-14.44	-97.575	-89.502	-101.933	-94.44	-0.206	-13.068
174	-0.198	-14.547	-100.549	-80.014	-95.812	-81.246	-0.203	-13.171
175	-0.199	-14.658	-97.271	-114.5	-95.509	-122.912	-0.207	-13.272
176	-0.197	-14.767	-93.567	-91.307	-98.378	-5.688	-0.204	-13.368
177	-0.197	-14.861	-103.291	112.163	-91.944	-61.607	-0.205	-13.462
178	-0.198	-14.992	-96.685	-70.153	-96.109	-66.354	-0.204	-13.566
179	-0.198	-15.091	-127.537	-78.245	-95.288	-143.544	-0.206	-13.665
180	-0.198	-15.199	-100.674	-118.663	-99.703	54.164	-0.206	-13.773
181	-0.198	-15.299	-102.32	-2.086	-97.209	-135.662	-0.207	-13.863
182	-0.199	-15.402	-107.069	-67.022	-96.414	-89.036	-0.207	-13.966
183	-0.198	-15.52	-97.029	-60.711	-99.792	-160.4	-0.206	-14.062
184	-0.197	-15.627	-96.291	-123.846	-94.73	-71.854	-0.206	-14.17
185	-0.195	-15.724	-97.346	-84.667	-102.118	-136.656	-0.206	-14.265
186	-0.197	-15.834	-97.924	-164.805	-101.727	-53.719	-0.208	-14.363
187	-0.195	-15.938	-96.852	-67.855	-95.915	-105.338	-0.207	-14.46
188	-0.197	-16.053	-96.691	-109.371	-103.107	-139.404	-0.207	-14.558
189	-0.198	-16.161	-96.79	-165.627	-97.711	-106.77	-0.207	-14.665
190	-0.198	-16.27	-99.63	31.96	-99.782	-89.06	-0.208	-14.757
191	-0.198	-16.374	-95.383	-70.801	-91.525	-115.37	-0.207	-14.869
192	-0.197	-16.483	-104.935	-85.655	-92.377	-121.737	-0.209	-14.966
193	-0.198	-16.588	-106.266	-54.694	-105.76	148.026	-0.207	-15.065
194	-0.198	-16.694	-101.618	55.117	-96.626	-76.106	-0.209	-15.162
195	-0.198	-16.792	-94.832	-67.594	-96.28	-96.939	-0.207	-15.252
196	-0.197	-16.908	-96.704	-146.814	-96.512	-63.861	-0.209	-15.358
197	-0.199	-17.011	-97.807	-128.098	-110.456	-117.488	-0.208	-15.453
198	-0.198	-17.114	-99.958	-65.73	-101.405	-99.746	-0.21	-15.554
199	-0.198	-17.221	-98.991	-68.324	-93.723	-125.907	-0.208	-15.66
200	-0.198	-17.319	-116.678	-80.052	-96.584	-46.745	-0.209	-15.743
201	-0.198	-17.427	-102.087	-86.48	-94.601	-122.283	-0.206	-15.862
202	-0.199	-17.543	-93.848	-58.978	-96.617	-149.493	-0.208	-15.943
203	-0.197	-17.646	-101.256	-84.174	-112.284	-26.971	-0.207	-16.049
204	-0.196	-17.75	-95.213	-68.263	-99.717	-39.662	-0.21	-16.135
205	-0.198	-17.858	-102.286	-34.507	-98.04	-103.124	-0.21	-16.23
206	-0.199	-17.954	-98.118	-128.813	-99.45	-132.46	-0.208	-16.336
207	-0.197	-18.064	-100.963	175.473	-102.468	-165.666	-0.209	-16.437
208	-0.198	-18.177	-95.824	-83.293	-95.099	-34.298	-0.21	-16.531
209	-0.198	-18.264	-99.752	115.017	-99.788	-134.966	-0.21	-16.629
210	-0.197	-18.376	-95.862	-94.796	-96.002	-49.535	-0.21	-16.737
211	-0.196	-18.463	-109.898	-132.509	-111.663	-144.401	-0.209	-16.822
212	-0.198	-18.585	-99.687	-91.646	-106.877	-164.947	-0.209	-16.918
213	-0.197	-18.679	-94.987	-133.069	-98.166	-168.803	-0.21	-17.014
214	-0.198	-18.81	-93.365	-51.967	-92.096	-129.9	-0.21	-17.107
215	-0.196	-18.883	-98.408	-95.167	-95.552	-37.55	-0.212	-17.211
216	-0.198	-19.014	-99.384	-103.144	-99.583	-136.799	-0.209	-17.307
217	-0.199	-19.122	-97.222	-113.118	-100.39	-139.137	-0.21	-17.405
218	-0.199	-19.215	-90.579	-129.332	-93.709	-136.349	-0.211	-17.501
219	-0.199	-19.32	-97.601	-164.475	-93.465	-84.477	-0.211	-17.599
220	-0.198	-19.418	-100.382	-136.766	-97.822	-103.618	-0.21	-17.697
221	-0.2	-19.533	-95.804	-105.749	-94.239	-176.591	-0.212	-17.804
222	-0.197	-19.63	-117.152	126.603	-97.74	-58.007	-0.212	-17.891
223	-0.199	-19.738	-99.224	-90.016	-98.396	-98.795	-0.212	-17.987
224	-0.196	-19.826	-101.5	-25.968	-94.186	-103.641	-0.211	-18.086
225	-0.197	-19.941	-96.822	-44.043	-95.831	-117.419	-0.21	-18.194
226	-0.195	-20.049	-94.955	-112.628	-106.239	-174.67	-0.212	-18.286
228	-0.196	-20.248	-102.661	-127.744	-94.61	-112.532	-0.211	-18.476
230	-0.199	-20.469	-96.533	-129.093	-107.594	128.424	-0.211	-18.67
232	-0.195	-20.672	-95.903	-149.678	-99.88	-82.502	-0.213	-18.858
234	-0.196	-20.866	-101.816	-129.635	-101.65	-128.207	-0.215	-19.063
236	-0.199	-21.089	-103.563	-152.695	-95.144	-179.83	-0.21	-19.241
238	-0.196	-21.287	-92.037	-68.421	-95.73	-83.688	-0.213	-19.447
240	-0.199	-21.497	-93.292	-90.508	-97.359	-134.319	-0.213	-19.632
242	-0.198	-21.707	-98.227	-147.524	-92.718	-80.151	-0.216	-19.819
244	-0.2	-21.923	-101.476	-118.71	-96.267	-115.678	-0.215	-20.02
246	-0.201	-22.119	-96.228	170.932	-102.788	-115.644	-0.218	-20.21
248	-0.199	-22.314	-94.639	-74.785	-93.16	-144.97	-0.216	-20.403
250	-0.201	-22.541	-94.129	-117.163	-96.235	-78.183	-0.217	-20.598
252	-0.202	-22.736	-94.508	-111.727	-100.986	-57.64	-0.216	-20.805
254	-0.2	-22.953	-97.334	-152.393	-92.264	-104.503	-0.218	-20.987
256	-0.201	-23.155	-89.415	-62.731	-92.01	-92.464	-0.218	-21.164
258	-0.202	-23.361	-98.447	-129.234	-95.837	-67.763	-0.22	-21.375
260	-0.204	-23.57	-90.95	-98.837	-99.116	-125.494	-0.22	-21.57
262	-0.2	-23.75	-98.224	-24.348	-97.773	166.491	-0.22	-21.753
264	-0.201	-23.973	-91.375	-145.625	-92.315	-99.37	-0.222	-21.948
266	-0.203	-24.182	-111.911	-107.26	-95.913	-84.453	-0.22	-22.134
268	-0.204	-24.38	-92.366	-117.799	-93.969	-178.571	-0.221	-22.333
270	-0.202	-24.588	-100.68	-100.007	-105.588	-113.39	-0.221	-22.509
272	-0.199	-24.78	-96.347	-57.28	-98.924	-50.59	-0.224	-22.716
274	-0.203	-25.008	-95.85	-158.943	-96.081	168.502	-0.222	-22.917
276	-0.201	-25.2	-94.162	-177.824	-100.512	-121.105	-0.221	-23.108
278	-0.205	-25.414	-90.189	-76.792	-97.692	-142.985	-0.224	-23.302
280	-0.202	-25.621	-101.021	-75.689	-98.157	-98.371	-0.224	-23.476
282	-0.2	-25.817	-100.762	-156.897	-90.026	-79.286	-0.225	-23.676
284	-0.204	-26.03	-93.849	-89.478	-95.286	-122.208	-0.224	-23.89
