! Mini-Circuits
! S2P DATA File Format
! Type: Coaxial SMA Connectorized Low Pass Filter
! Model: VLF-7200+    
! Note: All S Parameters are in dB deg format
! TEST CONDITIONS: INPUT POWER = 0dBm @Temperature = -55degC
! 401 Frequency points
# MHz S dB R 50
!    FREQ       dB(S11)   PHS(S11)  dB(S21)   PHS(S21)  dB(S12)   PHS(S12)  dB(S22)   PHS(S22) 
   00.000000   -46.205    -1.330    -0.056    -3.855     0.022    -2.930   -45.985    53.082 
   40.000000   -46.205    -1.330    -0.056    -3.855     0.022    -2.930   -45.985    53.082 
   80.000000   -44.814   -62.454    -0.007    -7.275     0.010    -7.232   -44.181   -60.657 
  120.000000   -41.207   -79.806    -0.028   -10.663    -0.020   -10.507   -39.205   -60.239 
  160.000000   -45.811   -64.039    -0.012   -14.178    -0.014   -14.047   -40.558   -43.882 
  200.000000   -47.662    -9.784    -0.018   -17.626    -0.021   -17.548   -41.335   -14.548 
  240.000000   -43.128    19.801    -0.030   -20.986    -0.021   -20.973   -41.340    10.736 
  280.000000   -41.531    10.958    -0.031   -24.422    -0.026   -24.396   -41.709    18.494 
  320.000000   -40.298    -9.019    -0.030   -27.778    -0.029   -27.765   -44.297    14.623 
  360.000000   -39.114   -34.565    -0.042   -31.216    -0.032   -31.228   -51.378   -35.058 
  400.000000   -37.499   -65.785    -0.036   -34.715    -0.033   -34.608   -42.197  -107.563 
  440.000000   -34.942   -84.861    -0.044   -38.184    -0.032   -38.109   -37.878  -122.131 
  480.000000   -32.960   -95.118    -0.048   -41.654    -0.041   -41.574   -34.884  -127.465 
  520.000000   -31.646  -107.539    -0.051   -45.050    -0.045   -45.049   -32.810  -128.212 
  560.000000   -30.912  -113.294    -0.054   -48.518    -0.047   -48.466   -31.973  -132.058 
  600.000000   -30.205  -117.869    -0.057   -51.983    -0.044   -51.946   -30.896  -136.126 
  640.000000   -29.515  -124.498    -0.061   -55.412    -0.052   -55.333   -30.065  -138.481 
  680.000000   -29.059  -128.214    -0.064   -58.848    -0.059   -58.806   -29.793  -143.945 
  720.000000   -28.275  -131.436    -0.067   -62.361    -0.060   -62.280   -29.043  -150.317 
  760.000000   -27.538  -136.341    -0.061   -65.746    -0.060   -65.666   -28.294  -153.646 
  800.000000   -27.147  -140.005    -0.068   -69.212    -0.066   -69.189   -28.136  -157.683 
  840.000000   -26.798  -145.279    -0.072   -72.671    -0.069   -72.620   -27.432  -161.802 
  880.000000   -26.401  -150.109    -0.078   -76.105    -0.074   -76.049   -26.913  -163.623 
  920.000000   -26.211  -153.210    -0.083   -79.571    -0.074   -79.499   -26.807  -166.750 
  960.000000   -25.683  -158.017    -0.072   -83.003    -0.075   -82.990   -26.255  -173.171 
 1000.000000   -25.274  -160.773    -0.086   -86.477    -0.080   -86.439   -25.905  -176.731 
 1040.000000   -24.930  -163.195    -0.090   -89.969    -0.088   -89.871   -25.647   176.433 
 1080.000000   -24.309  -166.757    -0.087   -93.476    -0.092   -93.368   -25.107   171.716 
 1120.000000   -24.045  -170.906    -0.083   -96.908    -0.096   -96.866   -24.682   168.277 
 1160.000000   -23.775  -173.769    -0.096  -100.396    -0.088  -100.327   -24.396   164.303 
 1200.000000   -23.309  -179.572    -0.098  -103.829    -0.097  -103.771   -23.783   161.566 
 1240.000000   -23.151   175.645    -0.096  -107.260    -0.106  -107.225   -23.580   159.605 
 1280.000000   -22.927   170.890    -0.105  -110.762    -0.104  -110.687   -23.340   156.246 
 1320.000000   -22.548   165.422    -0.103  -114.220    -0.105  -114.227   -22.911   154.056 
 1360.000000   -22.370   160.932    -0.109  -117.710    -0.111  -117.628   -22.740   151.426 
 1400.000000   -22.099   156.114    -0.116  -121.176    -0.114  -121.138   -22.424   148.352 
 1440.000000   -21.793   152.449    -0.117  -124.661    -0.117  -124.591   -21.976   145.158 
 1480.000000   -21.534   148.796    -0.123  -128.112    -0.122  -128.070   -21.827   141.382 
 1520.000000   -21.260   145.509    -0.124  -131.594    -0.130  -131.549   -21.556   136.391 
 1560.000000   -21.044   142.867    -0.128  -135.120    -0.130  -135.034   -21.407   132.513 
 1600.000000   -20.892   139.901    -0.128  -138.607    -0.133  -138.516   -21.170   127.278 
 1640.000000   -20.632   138.206    -0.134  -142.096    -0.132  -142.009   -20.830   121.998 
 1680.000000   -20.346   135.579    -0.132  -145.587    -0.138  -145.535   -20.664   116.719 
 1720.000000   -20.146   134.028    -0.133  -149.067    -0.137  -148.945   -20.468   111.563 
 1760.000000   -19.820   131.685    -0.138  -152.575    -0.146  -152.473   -20.108   105.539 
 1800.000000   -19.548   128.859    -0.144  -156.047    -0.152  -155.957   -19.797   100.372 
 1840.000000   -19.248   126.995    -0.148  -159.595    -0.150  -159.466   -19.549    95.968 
 1880.000000   -18.910   123.424    -0.152  -163.118    -0.165  -162.989   -19.139    91.515 
 1920.000000   -18.609   120.555    -0.155  -166.621    -0.166  -166.527   -18.829    87.687 
 1960.000000   -18.298   116.908    -0.165  -170.177    -0.175  -170.086   -18.488    83.665 
 2000.000000   -17.922   113.289    -0.164  -173.647    -0.174  -173.571   -18.091    79.986 
 2040.000000   -17.594   109.626    -0.169  -177.225    -0.179  -177.127   -17.690    76.330 
 2080.000000   -17.246   106.258    -0.182   179.311    -0.194   179.411   -17.298    72.148 
 2120.000000   -16.923   102.973    -0.187   175.758    -0.194   175.880   -16.933    68.633 
 2160.000000   -16.679    99.066    -0.209   172.241    -0.203   172.366   -16.667    65.514 
 2200.000000   -16.471    95.576    -0.198   168.735    -0.212   168.819   -16.419    61.930 
 2240.000000   -16.210    91.945    -0.220   165.210    -0.221   165.297   -16.220    58.766 
 2280.000000   -16.120    88.324    -0.219   161.714    -0.222   161.824   -16.065    55.366 
 2320.000000   -15.986    84.355    -0.225   158.201    -0.224   158.328   -15.905    51.327 
 2360.000000   -15.879    81.214    -0.228   154.664    -0.234   154.795   -15.779    48.003 
 2400.000000   -15.777    78.375    -0.224   151.126    -0.231   151.293   -15.764    43.781 
 2440.000000   -15.708    75.920    -0.241   147.651    -0.237   147.705   -15.608    39.332 
 2480.000000   -15.561    72.968    -0.232   144.072    -0.244   144.180   -15.552    35.105 
 2520.000000   -15.543    70.469    -0.242   140.478    -0.246   140.652   -15.513    30.631 
 2560.000000   -15.397    67.793    -0.239   137.025    -0.248   137.076   -15.411    25.807 
 2600.000000   -15.345    65.081    -0.247   133.394    -0.251   133.543   -15.262    21.705 
 2640.000000   -15.310    62.280    -0.254   129.872    -0.250   129.964   -15.207    17.467 
 2680.000000   -15.184    59.083    -0.243   126.271    -0.260   126.412   -15.096    13.550 
 2720.000000   -15.100    56.722    -0.266   122.735    -0.260   122.820   -15.069     9.169 
 2760.000000   -15.054    54.127    -0.259   119.099    -0.270   119.234   -15.040     4.453 
 2800.000000   -15.013    51.058    -0.277   115.464    -0.269   115.609   -14.938     0.011 
 2840.000000   -14.890    48.872    -0.262   111.946    -0.275   112.051   -14.840    -4.558 
 2880.000000   -14.855    46.359    -0.272   108.318    -0.277   108.448   -14.792    -9.218 
 2920.000000   -14.761    43.957    -0.280   104.772    -0.285   104.833   -14.702   -14.154 
 2960.000000   -14.638    41.695    -0.269   101.143    -0.285   101.259   -14.662   -18.683 
 3000.000000   -14.575    39.357    -0.285    97.518    -0.296    97.656   -14.579   -23.747 
 3040.000000   -14.448    36.391    -0.292    93.874    -0.298    94.011   -14.405   -28.222 
 3080.000000   -14.342    34.343    -0.317    90.264    -0.306    90.361   -14.276   -32.952 
 3120.000000   -14.193    31.622    -0.307    86.687    -0.311    86.791   -14.138   -37.646 
 3160.000000   -14.112    28.740    -0.312    83.025    -0.320    83.165   -14.040   -42.220 
 3200.000000   -14.032    26.023    -0.327    79.512    -0.323    79.590   -13.955   -46.235 
 3240.000000   -13.898    22.754    -0.318    75.784    -0.330    75.967   -13.887   -50.772 
 3280.000000   -13.880    19.806    -0.340    72.207    -0.328    72.344   -13.828   -54.559 
 3320.000000   -13.857    16.463    -0.315    68.614    -0.335    68.712   -13.814   -58.727 
 3360.000000   -13.846    12.940    -0.335    64.878    -0.338    65.088   -13.762   -62.686 
 3400.000000   -13.776     9.292    -0.332    61.338    -0.343    61.435   -13.716   -65.935 
 3440.000000   -13.768     5.587    -0.346    57.668    -0.349    57.800   -13.725   -70.054 
 3480.000000   -13.747     2.202    -0.338    54.106    -0.342    54.151   -13.674   -73.660 
 3520.000000   -13.709    -1.718    -0.335    50.334    -0.352    50.465   -13.675   -76.972 
 3560.000000   -13.741    -4.999    -0.359    46.742    -0.350    46.865   -13.689   -80.512 
 3600.000000   -13.730    -8.857    -0.344    43.053    -0.346    43.115   -13.677   -84.458 
 3640.000000   -13.820   -12.368    -0.356    39.257    -0.355    39.454   -13.734   -87.747 
 3680.000000   -13.851   -16.005    -0.342    35.746    -0.343    35.785   -13.770   -91.939 
 3720.000000   -13.901   -19.898    -0.348    31.904    -0.350    32.099   -13.827   -95.325 
 3760.000000   -13.910   -23.443    -0.345    28.379    -0.344    28.425   -13.902   -99.181 
 3800.000000   -14.000   -26.446    -0.343    24.534    -0.350    24.722   -13.961  -103.188 
 3840.000000   -14.009   -30.029    -0.350    20.828    -0.343    20.994   -13.976  -106.999 
 3880.000000   -14.084   -33.469    -0.339    17.080    -0.339    17.154   -14.039  -111.036 
 3920.000000   -14.160   -36.759    -0.348    13.252    -0.345    13.486   -14.131  -115.270 
 3960.000000   -14.201   -40.387    -0.342     9.635    -0.338     9.742   -14.183  -118.966 
 4000.000000   -14.289   -43.999    -0.334     5.764    -0.344     5.919   -14.311  -122.793 
 4040.000000   -14.367   -46.932    -0.336     2.136    -0.330     2.241   -14.383  -126.984 
 4080.000000   -14.493   -50.723    -0.321    -1.706    -0.333    -1.636   -14.477  -131.003 
 4120.000000   -14.630   -53.975    -0.347    -5.457    -0.330    -5.314   -14.636  -134.988 
 4160.000000   -14.633   -57.576    -0.323    -9.302    -0.326    -9.215   -14.658  -139.327 
 4200.000000   -14.728   -60.777    -0.340   -13.177    -0.336   -12.945   -14.736  -143.378 
 4240.000000   -14.865   -64.312    -0.321   -16.891    -0.316   -16.824   -14.900  -147.512 
 4280.000000   -14.862   -68.147    -0.333   -20.840    -0.334   -20.676   -14.911  -151.625 
 4320.000000   -14.853   -71.355    -0.331   -24.486    -0.322   -24.357   -14.956  -155.481 
 4360.000000   -15.005   -75.196    -0.325   -28.517    -0.328   -28.357   -15.037  -159.988 
 4400.000000   -14.991   -79.219    -0.339   -32.249    -0.332   -32.124   -15.055  -162.815 
 4440.000000   -15.063   -83.409    -0.314   -36.124    -0.317   -36.038   -15.154  -166.569 
 4480.000000   -15.077   -87.086    -0.343   -40.124    -0.337   -39.943   -15.246  -170.540 
 4520.000000   -14.973   -91.627    -0.324   -43.883    -0.323   -43.744   -15.161  -174.124 
 4560.000000   -15.090   -95.050    -0.342   -47.872    -0.335   -47.697   -15.274  -177.975 
 4600.000000   -15.018   -98.927    -0.331   -51.729    -0.335   -51.523   -15.236   177.700 
 4640.000000   -14.845  -103.309    -0.340   -55.632    -0.339   -55.478   -15.053   174.540 
 4680.000000   -14.898  -105.840    -0.336   -59.418    -0.344   -59.312   -15.212   170.099 
 4720.000000   -15.043  -109.489    -0.336   -63.390    -0.340   -63.217   -15.265   165.469 
 4760.000000   -15.085  -114.387    -0.352   -67.270    -0.345   -67.162   -15.312   162.842 
 4800.000000   -15.259  -117.990    -0.345   -71.185    -0.341   -71.054   -15.529   158.886 
 4840.000000   -15.407  -121.542    -0.344   -75.239    -0.338   -75.074   -15.677   154.684 
 4880.000000   -15.612  -126.325    -0.331   -79.037    -0.334   -78.925   -15.844   151.682 
 4920.000000   -15.737  -130.653    -0.333   -83.133    -0.323   -83.000   -16.043   147.924 
 4960.000000   -15.820  -134.668    -0.345   -87.002    -0.341   -86.860   -16.157   143.600 
 5000.000000   -16.002  -139.513    -0.326   -91.068    -0.323   -90.917   -16.269   140.633 
 5040.000000   -16.068  -143.774    -0.334   -95.103    -0.341   -94.985   -16.339   136.279 
 5080.000000   -16.135  -147.876    -0.332   -99.102    -0.333   -98.899   -16.412   132.491 
 5120.000000   -16.365  -152.615    -0.340  -103.216    -0.330  -103.045   -16.578   128.953 
 5160.000000   -16.341  -156.189    -0.331  -107.173    -0.339  -106.952   -16.648   124.535 
 5200.000000   -16.557  -160.258    -0.330  -111.255    -0.320  -111.031   -16.841   120.724 
 5240.000000   -17.046  -164.276    -0.335  -115.173    -0.337  -115.045   -17.314   116.573 
 5280.000000   -17.075  -168.647    -0.323  -119.339    -0.321  -119.161   -17.408   111.999 
 5320.000000   -17.423  -171.373    -0.326  -123.372    -0.331  -123.215   -17.745   108.023 
 5360.000000   -18.208  -175.132    -0.314  -127.476    -0.317  -127.274   -18.525   103.350 
 5400.000000   -18.397   179.594    -0.322  -131.718    -0.310  -131.510   -18.685    99.056 
 5440.000000   -18.474   175.909    -0.313  -135.691    -0.323  -135.552   -18.816    95.024 
 5480.000000   -19.216   172.512    -0.313  -139.949    -0.304  -139.796   -19.478    90.203 
 5520.000000   -19.372   166.408    -0.312  -144.087    -0.316  -143.952   -19.642    86.764 
 5560.000000   -19.233   160.667    -0.314  -148.345    -0.310  -148.180   -19.533    83.746 
 5600.000000   -19.515   158.433    -0.319  -152.612    -0.315  -152.443   -19.936    78.100 
 5640.000000   -19.554   154.996    -0.314  -156.830    -0.323  -156.596   -19.859    72.027 
 5680.000000   -19.519   151.555    -0.323  -161.052    -0.312  -160.859   -19.745    67.913 
 5720.000000   -19.889   150.073    -0.321  -165.255    -0.325  -165.106   -20.138    61.395 
 5760.000000   -20.227   147.593    -0.317  -169.546    -0.314  -169.356   -20.351    54.765 
 5800.000000   -20.441   143.113    -0.322  -173.737    -0.327  -173.594   -20.396    50.701 
 5840.000000   -20.670   140.124    -0.327  -178.083    -0.318  -177.910   -20.849    45.566 
 5880.000000   -21.116   138.797    -0.335   177.657    -0.324   177.748   -21.034    37.897 
 5920.000000   -21.517   135.201    -0.316   173.300    -0.324   173.516   -21.220    33.582 
 5960.000000   -22.143   128.393    -0.330   168.928    -0.322   169.146   -21.710    31.254 
 6000.000000   -22.374   124.503    -0.321   164.568    -0.334   164.760   -21.857    25.558 
 6040.000000   -22.530   119.640    -0.330   160.167    -0.322   160.350   -21.889    22.098 
 6080.000000   -23.060   114.843    -0.336   155.821    -0.336   155.961   -22.503    17.943 
 6120.000000   -23.253   112.650    -0.335   151.333    -0.331   151.557   -22.624    11.189 
 6160.000000   -23.842   108.280    -0.339   146.866    -0.336   147.082   -22.923     7.609 
 6200.000000   -24.401   105.198    -0.332   142.436    -0.345   142.590   -23.666     2.668 
 6240.000000   -24.865   101.690    -0.343   137.841    -0.337   138.069   -23.779    -3.990 
 6280.000000   -25.477    96.934    -0.339   133.383    -0.350   133.564   -24.298    -6.365 
 6320.000000   -26.279    93.418    -0.347   128.747    -0.343   129.066   -25.205   -12.022 
 6360.000000   -26.839    91.035    -0.348   124.248    -0.351   124.437   -25.571   -17.287 
 6400.000000   -27.705    86.193    -0.358   119.622    -0.355   119.820   -26.322   -19.810 
 6440.000000   -28.566    84.553    -0.360   114.943    -0.356   115.212   -27.251   -26.166 
 6480.000000   -29.451    82.269    -0.359   110.234    -0.363   110.523   -27.734   -30.102 
 6520.000000   -31.461    78.060    -0.377   105.523    -0.368   105.826   -29.131   -31.302 
 6560.000000   -33.322    73.764    -0.374   100.852    -0.381   101.084   -30.214   -34.641 
 6600.000000   -36.017    70.284    -0.382    96.049    -0.377    96.316   -31.974   -30.346 
 6640.000000   -45.255    62.620    -0.385    91.324    -0.386    91.508   -34.977   -14.453 
 6680.000000   -55.035   -75.551    -0.395    86.455    -0.394    86.710   -37.068    -1.426 
 6720.000000   -39.462   -98.037    -0.408    81.578    -0.406    81.816   -35.602    25.482 
 6760.000000   -34.626  -119.676    -0.411    76.661    -0.415    76.887   -34.451    50.757 
 6800.000000   -32.124  -121.447    -0.433    71.716    -0.414    71.932   -32.828    54.231 
 6840.000000   -30.186  -125.072    -0.428    66.744    -0.432    66.909   -30.856    51.717 
 6880.000000   -28.506  -134.760    -0.441    61.662    -0.441    61.954   -29.226    58.351 
 6920.000000   -26.838  -138.195    -0.450    56.624    -0.451    56.804   -28.171    53.447 
 6960.000000   -25.443  -138.858    -0.479    51.416    -0.472    51.700   -26.316    47.036 
 7000.000000   -24.194  -145.005    -0.485    46.241    -0.480    46.501   -25.084    45.084 
 7040.000000   -23.262  -146.931    -0.497    40.952    -0.500    41.206   -24.395    38.410 
 7080.000000   -21.967  -150.301    -0.525    35.613    -0.516    35.930   -22.811    31.028 
 7120.000000   -20.932  -155.119    -0.534    30.240    -0.540    30.526   -21.731    26.872 
 7160.000000   -20.046  -157.308    -0.559    24.861    -0.557    25.139   -20.866    18.491 
 7200.000000   -19.167  -160.908    -0.578    19.338    -0.581    19.592   -19.854    11.866 
 7240.000000   -18.507  -164.819    -0.611    13.750    -0.609    14.073   -19.207     5.004 
 7280.000000   -17.767  -168.177    -0.640     8.096    -0.634     8.414   -18.373    -3.313 
 7320.000000   -17.039  -172.404    -0.659     2.416    -0.671     2.682   -17.680    -9.899 
 7360.000000   -16.535  -176.172    -0.702    -3.378    -0.692    -3.056   -17.265   -17.119 
 7400.000000   -15.804  -179.805    -0.727    -9.239    -0.736    -9.078   -16.515   -25.629 
 7440.000000   -15.369   175.873    -0.774   -15.242    -0.760   -14.971   -16.025   -31.990 
 7480.000000   -14.852   172.081    -0.802   -21.284    -0.804   -21.103   -15.629   -41.166 
 7520.000000   -14.282   169.474    -0.850   -27.557    -0.858   -27.240   -15.111   -50.575 
 7560.000000   -13.970   165.798    -0.899   -33.874    -0.885   -33.550   -14.866   -59.005 
 7600.000000   -13.542   162.885    -0.931   -40.330    -0.929   -40.045   -14.534   -69.723 
 7640.000000   -12.965   160.055    -1.001   -46.943    -0.992   -46.619   -14.034   -79.780 
 7680.000000   -12.711   156.830    -1.039   -53.686    -1.043   -53.412   -13.876   -90.224 
 7720.000000   -12.265   153.527    -1.119   -60.686    -1.114   -60.295   -13.596  -101.460 
 7760.000000   -11.774   150.193    -1.179   -67.776    -1.176   -67.554   -13.171  -113.025 
 7800.000000   -11.314   147.406    -1.264   -75.215    -1.273   -74.951   -12.904  -125.043 
 7840.000000   -10.831   143.888    -1.370   -82.803    -1.356   -82.522   -12.511  -138.001 
 7880.000000   -10.303   140.401    -1.465   -90.722    -1.477   -90.511   -12.162  -151.162 
 7920.000000    -9.783   136.631    -1.610   -98.952    -1.599   -98.628   -11.749  -165.471 
 7960.000000    -9.069   133.105    -1.769  -107.508    -1.773  -107.337   -11.127   179.274 
 8000.000000    -8.411   129.177    -1.975  -116.440    -1.981  -116.128   -10.521   164.091 
 8040.000000    -7.710   124.593    -2.221  -125.640    -2.204  -125.417    -9.857   148.026 
 8080.000000    -6.924   119.390    -2.525  -135.446    -2.540  -135.130    -9.064   132.078 
 8120.000000    -6.168   114.328    -2.911  -145.260    -2.893  -145.048    -8.297   115.825 
 8150.000000    -5.627   109.853    -3.227  -153.240    -3.242  -152.924    -7.703   102.950 
 8200.000000    -4.713   102.076    -3.929  -166.492    -3.921  -166.279    -6.695    82.010 
