! Mini-Circuits								
! S2P DATA File Format								
! Type: LOW PASS FILTER								
! Model: VLFG-1000+								
! All S Parameters are in dB deg format								
! TEST CONDITIONS: INPUT POWER = 0 dBm @ Temperature = -55 deg C
# MHz S dB R 50
!Frequency        S11 dB  S11 DEG   S21 dB  S21 DEG   S12 dB  S12 DEG   S22 dB  S22 DEG
  10.0000     -3.832909E+001  7.440297E+001 -6.931902E-002 -2.702415E+000 -6.388875E-002 -2.852512E+000 -3.899104E+001  5.921553E+001
  11.0000     -3.787417E+001  6.125890E+001 -7.120113E-002 -2.837080E+000 -6.663302E-002 -2.987457E+000 -3.876429E+001  4.973270E+001
  12.0000     -3.769736E+001  5.117226E+001 -7.137692E-002 -3.005031E+000 -6.909180E-002 -3.119110E+000 -3.856329E+001  4.238435E+001
  13.0000     -3.763027E+001  4.330482E+001 -7.294014E-002 -3.167296E+000 -7.035507E-002 -3.278481E+000 -3.860091E+001  3.569590E+001
  14.0000     -3.767625E+001  3.650383E+001 -7.253376E-002 -3.348375E+000 -7.086423E-002 -3.442883E+000 -3.864385E+001  3.149709E+001
  15.0000     -3.759199E+001  3.049157E+001 -7.388566E-002 -3.527410E+000 -7.095060E-002 -3.616086E+000 -3.866044E+001  2.651918E+001
  16.0000     -3.777575E+001  2.524182E+001 -7.509213E-002 -3.714703E+000 -7.237273E-002 -3.794912E+000 -3.872385E+001  2.264786E+001
  17.0000     -3.789477E+001  2.118156E+001 -7.503753E-002 -3.901797E+000 -7.229873E-002 -3.979232E+000 -3.882059E+001  1.986606E+001
  18.0000     -3.805615E+001  1.687344E+001 -7.536335E-002 -4.098127E+000 -7.366093E-002 -4.171870E+000 -3.894084E+001  1.690161E+001
  19.0000     -3.822822E+001  1.366282E+001 -7.606540E-002 -4.292946E+000 -7.407072E-002 -4.359969E+000 -3.908767E+001  1.452724E+001
  20.0000     -3.848249E+001  1.096266E+001 -7.727700E-002 -4.482324E+000 -7.397378E-002 -4.558525E+000 -3.915851E+001  1.216022E+001
  30.0000     -4.091505E+001  4.100939E+000 -8.490463E-002 -6.495193E+000 -8.223427E-002 -6.556310E+000 -4.063488E+001  8.829470E+000
  40.0000     -4.109673E+001  1.999836E+001 -9.455586E-002 -8.527688E+000 -9.220015E-002 -8.598060E+000 -4.021201E+001  2.196005E+001
  50.0000     -3.895949E+001  3.068918E+001 -1.024738E-001 -1.057797E+001 -1.024245E-001 -1.064729E+001 -3.821759E+001  3.047603E+001
  60.0000     -3.673575E+001  3.434720E+001 -1.138780E-001 -1.258833E+001 -1.132019E-001 -1.263845E+001 -3.593534E+001  3.191102E+001
  70.0000     -3.498653E+001  3.249189E+001 -1.230144E-001 -1.463500E+001 -1.211128E-001 -1.467710E+001 -3.444062E+001  3.044384E+001
  80.0000     -3.395886E+001  3.003546E+001 -1.309096E-001 -1.668474E+001 -1.295778E-001 -1.671735E+001 -3.345324E+001  2.873200E+001
  90.0000     -3.333886E+001  3.030851E+001 -1.383522E-001 -1.873053E+001 -1.390616E-001 -1.875402E+001 -3.270469E+001  2.904662E+001
 100.0000     -3.253940E+001  3.329004E+001 -1.465814E-001 -2.076801E+001 -1.475961E-001 -2.078364E+001 -3.180015E+001  3.071492E+001
 110.0000     -3.142557E+001  3.627097E+001 -1.546144E-001 -2.280215E+001 -1.530875E-001 -2.282179E+001 -3.067519E+001  3.200259E+001
 120.0000     -3.029175E+001  3.795897E+001 -1.609433E-001 -2.483117E+001 -1.614212E-001 -2.485931E+001 -2.949678E+001  3.241628E+001
 130.0000     -2.924262E+001  3.874362E+001 -1.675542E-001 -2.686602E+001 -1.695020E-001 -2.688323E+001 -2.843869E+001  3.167441E+001
 140.0000     -2.836737E+001  3.861180E+001 -1.742852E-001 -2.889566E+001 -1.757380E-001 -2.889924E+001 -2.756994E+001  3.063616E+001
 150.0000     -2.772309E+001  3.805531E+001 -1.798951E-001 -3.092545E+001 -1.802236E-001 -3.093220E+001 -2.688992E+001  2.925650E+001
 160.0000     -2.723127E+001  3.798632E+001 -1.844335E-001 -3.296487E+001 -1.853654E-001 -3.297150E+001 -2.629947E+001  2.811111E+001
 170.0000     -2.672195E+001  3.807306E+001 -1.910881E-001 -3.499802E+001 -1.917547E-001 -3.500298E+001 -2.577434E+001  2.683136E+001
 180.0000     -2.619305E+001  3.761510E+001 -1.971081E-001 -3.702753E+001 -1.971296E-001 -3.703342E+001 -2.529590E+001  2.543885E+001
 190.0000     -2.574210E+001  3.659459E+001 -2.023793E-001 -3.905697E+001 -2.022476E-001 -3.906826E+001 -2.484296E+001  2.392415E+001
 200.0000     -2.537264E+001  3.556718E+001 -2.060460E-001 -4.109249E+001 -2.081259E-001 -4.110352E+001 -2.443208E+001  2.223866E+001
 210.0000     -2.505500E+001  3.439320E+001 -2.113283E-001 -4.312749E+001 -2.122144E-001 -4.313705E+001 -2.409924E+001  2.050718E+001
 220.0000     -2.485068E+001  3.302176E+001 -2.152797E-001 -4.516101E+001 -2.159449E-001 -4.516821E+001 -2.384305E+001  1.870664E+001
 230.0000     -2.476836E+001  3.169101E+001 -2.179569E-001 -4.719924E+001 -2.186998E-001 -4.720360E+001 -2.366754E+001  1.676613E+001
 240.0000     -2.473163E+001  3.044171E+001 -2.212702E-001 -4.924522E+001 -2.220730E-001 -4.924686E+001 -2.360019E+001  1.459084E+001
 250.0000     -2.469888E+001  2.865393E+001 -2.252118E-001 -5.129294E+001 -2.249314E-001 -5.128730E+001 -2.362796E+001  1.235587E+001
 260.0000     -2.475688E+001  2.621753E+001 -2.267198E-001 -5.334233E+001 -2.255104E-001 -5.334312E+001 -2.368626E+001  1.014958E+001
 270.0000     -2.490609E+001  2.378324E+001 -2.280486E-001 -5.540549E+001 -2.279648E-001 -5.541064E+001 -2.372558E+001  7.995179E+000
 280.0000     -2.505411E+001  2.181092E+001 -2.315439E-001 -5.746837E+001 -2.304848E-001 -5.748187E+001 -2.375639E+001  5.637921E+000
 290.0000     -2.514849E+001  2.010627E+001 -2.337257E-001 -5.952662E+001 -2.341167E-001 -5.953969E+001 -2.380697E+001  3.344331E+000
 300.0000     -2.521680E+001  1.807811E+001 -2.351310E-001 -6.160102E+001 -2.361242E-001 -6.160719E+001 -2.390482E+001  1.345455E+000
 310.0000     -2.534015E+001  1.584515E+001 -2.371568E-001 -6.368192E+001 -2.381949E-001 -6.368552E+001 -2.399006E+001 -5.345488E-001
 320.0000     -2.550827E+001  1.329953E+001 -2.398775E-001 -6.577432E+001 -2.401551E-001 -6.576629E+001 -2.410163E+001 -2.738262E+000
 330.0000     -2.572650E+001  1.059529E+001 -2.428807E-001 -6.785506E+001 -2.425674E-001 -6.784288E+001 -2.428996E+001 -5.274753E+000
 340.0000     -2.596970E+001  7.972087E+000 -2.444667E-001 -6.994428E+001 -2.430058E-001 -6.994085E+001 -2.453665E+001 -7.826314E+000
 350.0000     -2.616282E+001  5.581998E+000 -2.459758E-001 -7.205030E+001 -2.453984E-001 -7.205493E+001 -2.474284E+001 -9.988265E+000
 360.0000     -2.626299E+001  3.340199E+000 -2.495730E-001 -7.416374E+001 -2.503209E-001 -7.416457E+001 -2.483428E+001 -1.186871E+001
 370.0000     -2.631660E+001  1.190737E+000 -2.539035E-001 -7.626240E+001 -2.537382E-001 -7.626720E+001 -2.481414E+001 -1.376865E+001
 380.0000     -2.634505E+001 -5.924981E-001 -2.553999E-001 -7.837860E+001 -2.555775E-001 -7.837418E+001 -2.474574E+001 -1.596256E+001
 390.0000     -2.633608E+001 -2.076808E+000 -2.584054E-001 -8.050389E+001 -2.579628E-001 -8.049799E+001 -2.471111E+001 -1.831158E+001
 400.0000     -2.632135E+001 -3.863850E+000 -2.622959E-001 -8.263531E+001 -2.614875E-001 -8.263197E+001 -2.475189E+001 -2.070024E+001
 410.0000     -2.638295E+001 -5.802344E+000 -2.647026E-001 -8.476703E+001 -2.647693E-001 -8.475775E+001 -2.483574E+001 -2.291653E+001
 420.0000     -2.649012E+001 -7.428363E+000 -2.684642E-001 -8.690509E+001 -2.674892E-001 -8.689420E+001 -2.489592E+001 -2.495691E+001
 430.0000     -2.655549E+001 -8.385795E+000 -2.709987E-001 -8.905210E+001 -2.700745E-001 -8.904485E+001 -2.486856E+001 -2.708017E+001
 440.0000     -2.649934E+001 -9.203948E+000 -2.741788E-001 -9.119941E+001 -2.737927E-001 -9.120116E+001 -2.476315E+001 -2.945599E+001
 450.0000     -2.636853E+001 -1.020671E+001 -2.773114E-001 -9.336949E+001 -2.773498E-001 -9.335844E+001 -2.461554E+001 -3.192488E+001
 460.0000     -2.623731E+001 -1.151365E+001 -2.819992E-001 -9.553842E+001 -2.804033E-001 -9.552380E+001 -2.448429E+001 -3.424259E+001
 470.0000     -2.618498E+001 -1.290644E+001 -2.871427E-001 -9.769833E+001 -2.846868E-001 -9.769765E+001 -2.438277E+001 -3.627880E+001
 480.0000     -2.622130E+001 -1.413691E+001 -2.889234E-001 -9.986809E+001 -2.885319E-001 -9.987337E+001 -2.433527E+001 -3.840123E+001
 490.0000     -2.629310E+001 -1.508097E+001 -2.902274E-001 -1.020563E+002 -2.915961E-001 -1.020554E+002 -2.435830E+001 -4.048795E+001
 500.0000     -2.632415E+001 -1.591512E+001 -2.931984E-001 -1.042684E+002 -2.937804E-001 -1.042542E+002 -2.442044E+001 -4.257137E+001
 510.0000     -2.628796E+001 -1.722652E+001 -2.973671E-001 -1.064798E+002 -2.969725E-001 -1.064699E+002 -2.445714E+001 -4.480947E+001
 520.0000     -2.627363E+001 -1.898453E+001 -3.009912E-001 -1.086957E+002 -3.018819E-001 -1.086787E+002 -2.446757E+001 -4.732227E+001
 530.0000     -2.629353E+001 -2.074071E+001 -3.047781E-001 -1.109259E+002 -3.056835E-001 -1.108971E+002 -2.450607E+001 -4.965105E+001
 540.0000     -2.632184E+001 -2.232232E+001 -3.107402E-001 -1.131713E+002 -3.102218E-001 -1.131290E+002 -2.446607E+001 -5.113248E+001
 550.0000     -2.636258E+001 -2.381219E+001 -3.181081E-001 -1.154026E+002 -3.130266E-001 -1.153625E+002 -2.433488E+001 -5.332809E+001
 560.0000     -2.644920E+001 -2.546146E+001 -3.226624E-001 -1.176313E+002 -3.163471E-001 -1.176052E+002 -2.445146E+001 -5.597198E+001
 570.0000     -2.655812E+001 -2.732214E+001 -3.251356E-001 -1.198766E+002 -3.190920E-001 -1.198627E+002 -2.470041E+001 -5.739473E+001
 580.0000     -2.669217E+001 -2.963398E+001 -3.292820E-001 -1.221381E+002 -3.226671E-001 -1.221321E+002 -2.488750E+001 -5.829686E+001
 590.0000     -2.684013E+001 -3.228444E+001 -3.318075E-001 -1.244117E+002 -3.253450E-001 -1.244170E+002 -2.499421E+001 -5.967253E+001
 600.0000     -2.700528E+001 -3.488601E+001 -3.349394E-001 -1.266963E+002 -3.284577E-001 -1.267172E+002 -2.510337E+001 -6.164727E+001
 610.0000     -2.709546E+001 -3.711140E+001 -3.385271E-001 -1.289996E+002 -3.332383E-001 -1.290273E+002 -2.526264E+001 -6.358271E+001
 620.0000     -2.709511E+001 -3.983759E+001 -3.421087E-001 -1.313094E+002 -3.404764E-001 -1.313501E+002 -2.542446E+001 -6.493314E+001
 630.0000     -2.723406E+001 -4.321516E+001 -3.458943E-001 -1.336322E+002 -3.477521E-001 -1.336640E+002 -2.556283E+001 -6.575861E+001
 640.0000     -2.748638E+001 -4.579971E+001 -3.505980E-001 -1.359723E+002 -3.529186E-001 -1.359812E+002 -2.569550E+001 -6.641672E+001
 650.0000     -2.766501E+001 -4.824672E+001 -3.556399E-001 -1.383186E+002 -3.554836E-001 -1.383143E+002 -2.588997E+001 -6.711452E+001
 660.0000     -2.779536E+001 -5.175860E+001 -3.590313E-001 -1.406731E+002 -3.585044E-001 -1.406737E+002 -2.615231E+001 -6.777889E+001
 670.0000     -2.799898E+001 -5.608656E+001 -3.635820E-001 -1.430468E+002 -3.626402E-001 -1.430504E+002 -2.644913E+001 -6.837105E+001
 680.0000     -2.825388E+001 -6.041649E+001 -3.671143E-001 -1.454350E+002 -3.673619E-001 -1.454338E+002 -2.675013E+001 -6.875320E+001
 690.0000     -2.847964E+001 -6.434975E+001 -3.729770E-001 -1.478408E+002 -3.722891E-001 -1.478306E+002 -2.700887E+001 -6.884344E+001
 700.0000     -2.865192E+001 -6.801463E+001 -3.777592E-001 -1.502531E+002 -3.766009E-001 -1.502444E+002 -2.719518E+001 -6.858693E+001
 710.0000     -2.880658E+001 -7.179509E+001 -3.821249E-001 -1.526821E+002 -3.812768E-001 -1.526777E+002 -2.734749E+001 -6.830747E+001
 720.0000     -2.898007E+001 -7.612721E+001 -3.874653E-001 -1.551266E+002 -3.861601E-001 -1.551259E+002 -2.755225E+001 -6.789277E+001
 730.0000     -2.923454E+001 -8.119648E+001 -3.929693E-001 -1.575849E+002 -3.916941E-001 -1.575792E+002 -2.784725E+001 -6.693612E+001
 740.0000     -2.956390E+001 -8.697324E+001 -3.973119E-001 -1.600644E+002 -3.964789E-001 -1.600580E+002 -2.817201E+001 -6.540366E+001
 750.0000     -2.990522E+001 -9.299246E+001 -4.030498E-001 -1.625613E+002 -4.019172E-001 -1.625535E+002 -2.846213E+001 -6.348289E+001
 760.0000     -3.016891E+001 -9.901458E+001 -4.098434E-001 -1.650715E+002 -4.076367E-001 -1.650615E+002 -2.869535E+001 -6.150183E+001
 770.0000     -3.032848E+001 -1.051237E+002 -4.158289E-001 -1.675998E+002 -4.134694E-001 -1.675875E+002 -2.883453E+001 -5.938712E+001
 780.0000     -3.042182E+001 -1.114271E+002 -4.207319E-001 -1.701391E+002 -4.198475E-001 -1.701342E+002 -2.887564E+001 -5.728685E+001
 790.0000     -3.051193E+001 -1.181214E+002 -4.274235E-001 -1.727112E+002 -4.259194E-001 -1.726981E+002 -2.887152E+001 -5.510182E+001
 800.0000     -3.062436E+001 -1.254043E+002 -4.348139E-001 -1.752922E+002 -4.325488E-001 -1.752811E+002 -2.887249E+001 -5.236332E+001
 810.0000     -3.073991E+001 -1.333466E+002 -4.415484E-001 -1.778943E+002 -4.394780E-001 -1.778870E+002 -2.880183E+001 -4.886636E+001
 820.0000     -3.078903E+001 -1.415692E+002 -4.491949E-001  1.794782E+002 -4.461838E-001  1.794870E+002 -2.861362E+001 -4.540187E+001
 830.0000     -3.068531E+001 -1.497667E+002 -4.562924E-001  1.768332E+002 -4.535709E-001  1.768458E+002 -2.836127E+001 -4.260134E+001
 840.0000     -3.041618E+001 -1.577968E+002 -4.635810E-001  1.741658E+002 -4.613840E-001  1.741759E+002 -2.809699E+001 -4.031111E+001
 850.0000     -3.005476E+001 -1.655600E+002 -4.719908E-001  1.714786E+002 -4.694348E-001  1.714877E+002 -2.775403E+001 -3.831612E+001
 860.0000     -2.966749E+001 -1.728964E+002 -4.806454E-001  1.687651E+002 -4.776094E-001  1.687802E+002 -2.730003E+001 -3.679081E+001
 870.0000     -2.926517E+001 -1.798683E+002 -4.888931E-001  1.660265E+002 -4.860813E-001  1.660437E+002 -2.678778E+001 -3.577305E+001
 880.0000     -2.881178E+001  1.732424E+002 -4.977446E-001  1.632603E+002 -4.945763E-001  1.632784E+002 -2.625653E+001 -3.491810E+001
 890.0000     -2.832084E+001  1.662706E+002 -5.085485E-001  1.604713E+002 -5.045488E-001  1.604910E+002 -2.570898E+001 -3.416796E+001
 900.0000     -2.777865E+001  1.596686E+002 -5.195422E-001  1.576593E+002 -5.152038E-001  1.576812E+002 -2.517684E+001 -3.359158E+001
 905.0000     -2.748669E+001  1.565240E+002 -5.255415E-001  1.562457E+002 -5.196831E-001  1.562642E+002 -2.491995E+001 -3.338100E+001
 910.0000     -2.717507E+001  1.534998E+002 -5.309024E-001  1.548184E+002 -5.247171E-001  1.548423E+002 -2.466265E+001 -3.320564E+001
 915.0000     -2.685403E+001  1.505358E+002 -5.366554E-001  1.533934E+002 -5.297775E-001  1.534127E+002 -2.439992E+001 -3.310036E+001
 920.0000     -2.653324E+001  1.476496E+002 -5.422315E-001  1.519536E+002 -5.352218E-001  1.519688E+002 -2.412871E+001 -3.312771E+001
 925.0000     -2.621926E+001  1.448090E+002 -5.473699E-001  1.505115E+002 -5.408694E-001  1.505266E+002 -2.385314E+001 -3.330686E+001
 930.0000     -2.591798E+001  1.420584E+002 -5.542063E-001  1.490586E+002 -5.470478E-001  1.490752E+002 -2.357831E+001 -3.368844E+001
 935.0000     -2.562812E+001  1.394191E+002 -5.601667E-001  1.476012E+002 -5.533204E-001  1.476189E+002 -2.330707E+001 -3.420826E+001
 940.0000     -2.534880E+001  1.368695E+002 -5.671946E-001  1.461336E+002 -5.594555E-001  1.461535E+002 -2.304895E+001 -3.483260E+001
 945.0000     -2.507063E+001  1.344007E+002 -5.739400E-001  1.446559E+002 -5.651997E-001  1.446795E+002 -2.280341E+001 -3.544466E+001
 950.0000     -2.478742E+001  1.319994E+002 -5.815808E-001  1.431781E+002 -5.708720E-001  1.431952E+002 -2.255584E+001 -3.600595E+001
 955.0000     -2.450224E+001  1.296592E+002 -5.891734E-001  1.416918E+002 -5.768576E-001  1.417038E+002 -2.230153E+001 -3.651514E+001
 960.0000     -2.420217E+001  1.272747E+002 -5.963200E-001  1.402053E+002 -5.840924E-001  1.401998E+002 -2.203630E+001 -3.699267E+001
 965.0000     -2.390271E+001  1.248943E+002 -6.042115E-001  1.387126E+002 -5.912485E-001  1.386865E+002 -2.176396E+001 -3.750777E+001
 970.0000     -2.360205E+001  1.224768E+002 -6.103558E-001  1.372110E+002 -5.992633E-001  1.371723E+002 -2.148967E+001 -3.809888E+001
 975.0000     -2.330673E+001  1.200775E+002 -6.160278E-001  1.356965E+002 -6.081718E-001  1.356534E+002 -2.122394E+001 -3.878018E+001
 980.0000     -2.302424E+001  1.177450E+002 -6.217998E-001  1.341639E+002 -6.162456E-001  1.341261E+002 -2.097208E+001 -3.951985E+001
 985.0000     -2.274450E+001  1.154657E+002 -6.284682E-001  1.326180E+002 -6.242056E-001  1.325925E+002 -2.073918E+001 -4.030040E+001
 990.0000     -2.247168E+001  1.132651E+002 -6.364536E-001  1.310621E+002 -6.320655E-001  1.310496E+002 -2.051944E+001 -4.106230E+001
 995.0000     -2.219687E+001  1.111255E+002 -6.455685E-001  1.295006E+002 -6.392809E-001  1.294966E+002 -2.030362E+001 -4.182440E+001
1000.0000     -2.193294E+001  1.090515E+002 -6.554962E-001  1.279407E+002 -6.472390E-001  1.279314E+002 -2.009115E+001 -4.262387E+001
1005.0000     -2.167805E+001  1.069685E+002 -6.642123E-001  1.263737E+002 -6.564567E-001  1.263541E+002 -1.987836E+001 -4.348127E+001
1010.0000     -2.142882E+001  1.049560E+002 -6.730747E-001  1.248081E+002 -6.650940E-001  1.247694E+002 -1.967146E+001 -4.439524E+001
1015.0000     -2.119014E+001  1.028971E+002 -6.799470E-001  1.232217E+002 -6.739748E-001  1.231779E+002 -1.945999E+001 -4.541085E+001
1020.0000     -2.096317E+001  1.008497E+002 -6.863456E-001  1.216267E+002 -6.834524E-001  1.215778E+002 -1.925631E+001 -4.649086E+001
1025.0000     -2.074758E+001  9.882763E+001 -6.937539E-001  1.200104E+002 -6.922360E-001  1.199734E+002 -1.905945E+001 -4.765771E+001
1030.0000     -2.054384E+001  9.681174E+001 -7.017176E-001  1.183764E+002 -7.012599E-001  1.183598E+002 -1.887245E+001 -4.882721E+001
1035.0000     -2.034888E+001  9.481863E+001 -7.115194E-001  1.167356E+002 -7.096192E-001  1.167316E+002 -1.869260E+001 -5.000151E+001
1040.0000     -2.016208E+001  9.288907E+001 -7.213468E-001  1.150840E+002 -7.186254E-001  1.150941E+002 -1.851788E+001 -5.119944E+001
1045.0000     -1.997597E+001  9.097359E+001 -7.321122E-001  1.134321E+002 -7.272822E-001  1.134453E+002 -1.834921E+001 -5.237159E+001
1050.0000     -1.979183E+001  8.907108E+001 -7.427942E-001  1.117767E+002 -7.364295E-001  1.117805E+002 -1.819139E+001 -5.353127E+001
1055.0000     -1.960725E+001  8.718459E+001 -7.527582E-001  1.101084E+002 -7.454554E-001  1.101043E+002 -1.804412E+001 -5.472935E+001
1060.0000     -1.942891E+001  8.529094E+001 -7.617577E-001  1.084273E+002 -7.539395E-001  1.084173E+002 -1.790605E+001 -5.592199E+001
1065.0000     -1.925589E+001  8.337719E+001 -7.709298E-001  1.067333E+002 -7.634807E-001  1.067197E+002 -1.777641E+001 -5.707678E+001
1070.0000     -1.909361E+001  8.144547E+001 -7.802000E-001  1.050217E+002 -7.730496E-001  1.050052E+002 -1.765585E+001 -5.825788E+001
1075.0000     -1.895065E+001  7.949442E+001 -7.902439E-001  1.032961E+002 -7.831095E-001  1.032787E+002 -1.753788E+001 -5.945541E+001
1080.0000     -1.882331E+001  7.756167E+001 -7.996613E-001  1.015619E+002 -7.942477E-001  1.015435E+002 -1.742207E+001 -6.070735E+001
1085.0000     -1.871589E+001  7.565844E+001 -8.104556E-001  9.981301E+001 -8.050005E-001  9.979783E+001 -1.731270E+001 -6.205302E+001
1090.0000     -1.861904E+001  7.379266E+001 -8.209660E-001  9.804996E+001 -8.158769E-001  9.804249E+001 -1.721208E+001 -6.350214E+001
1095.0000     -1.853692E+001  7.197958E+001 -8.314508E-001  9.627633E+001 -8.259488E-001  9.627552E+001 -1.712230E+001 -6.503892E+001
1100.0000     -1.845934E+001  7.016991E+001 -8.425014E-001  9.448866E+001 -8.349475E-001  9.448982E+001 -1.704902E+001 -6.663336E+001
1105.0000     -1.839208E+001  6.835439E+001 -8.533207E-001  9.269504E+001 -8.446014E-001  9.269061E+001 -1.699432E+001 -6.820503E+001
1110.0000     -1.832818E+001  6.652472E+001 -8.638263E-001  9.088087E+001 -8.532246E-001  9.086584E+001 -1.695037E+001 -6.974543E+001
1115.0000     -1.827201E+001  6.468857E+001 -8.729250E-001  8.905348E+001 -8.628370E-001  8.902662E+001 -1.691511E+001 -7.122881E+001
1120.0000     -1.822394E+001  6.282151E+001 -8.817665E-001  8.720470E+001 -8.739103E-001  8.716827E+001 -1.688006E+001 -7.267749E+001
1125.0000     -1.818258E+001  6.091506E+001 -8.917361E-001  8.533121E+001 -8.852344E-001  8.529821E+001 -1.684737E+001 -7.409284E+001
1130.0000     -1.814857E+001  5.898161E+001 -9.013931E-001  8.343860E+001 -8.964032E-001  8.341162E+001 -1.681620E+001 -7.550971E+001
