! Mini-Circuits								
! S2P DATA File Format								
! Type: LOW PASS FILTER								
! Model: VLFX-80+								
! All S Parameters are in dB deg format								
! TEST CONDITIONS: INPUT POWER = 0 dBm @ Temperature = + 25 deg C								
!								
# MHz S DB R 50								
!								
!FREQ  MAG(S11)PHS(S11)MAG(S21)PHS(S21)MAG(S12)PHS(S12)MAG(S22)PHS(S22) 
   0.0000      -28.45     +00.00     -0.31     +00.00     -0.32     +00.00     -28.85     +00.00    
  10.0000      -28.45     -13.63     -0.31     -13.00     -0.32     -12.95     -28.85     -10.11     
  15.0000      -27.98     -23.44     -0.36     -19.50     -0.36     -19.49     -27.71     -20.23     
  20.0000      -27.66     -31.74     -0.40     -25.91     -0.40     -25.92     -27.59     -29.58     
  25.0000      -27.26     -39.73     -0.44     -32.33     -0.44     -32.33     -27.18     -40.17     
  30.0000      -26.54     -48.25     -0.47     -38.78     -0.47     -38.73     -26.75     -51.01     
  35.0000      -25.90     -57.19     -0.51     -45.23     -0.51     -45.14     -26.41     -60.29     
  40.0000      -25.33     -67.02     -0.55     -51.69     -0.55     -51.62     -25.90     -70.19     
  45.0000      -24.82     -77.56     -0.59     -58.21     -0.59     -58.15     -25.41     -80.68     
  50.0000      -24.27     -88.12     -0.62     -64.81     -0.62     -64.79     -24.95     -91.72     
  55.0000      -24.08     -99.25     -0.66     -71.4     -0.67     -71.39     -24.65     -104.16     
  60.0000      -23.84     -108.67     -0.71     -78.17     -0.71     -78.12     -24.42     -114.21     
  65.0000      -23.8     -117.16     -0.75     -85.01     -0.75     -84.99     -24.31     -124.24     
  70.0000      -23.85     -125.26     -0.8     -91.97     -0.8     -91.95     -24.28     -133.34     
  75.0000      -24.09     -132.7     -0.85     -99.07     -0.85     -99.05     -24.34     -141.37     
  80.0000      -24.51     -139.32     -0.9     -106.31     -0.91     -106.3     -24.44     -147.85     
  85.0000      -25.23     -144.46     -0.96     -113.73     -0.96     -113.72     -24.65     -153.19     
  90.0000      -26.32     -147.1     -1.02     -121.35     -1.02     -121.35     -24.87     -156.37     
  95.0000      -27.92     -145.79     -1.09     -129.21     -1.09     -129.21     -25.09     -157.22     
 100.0000      -29.77     -134.37     -1.16     -137.34     -1.16     -137.33     -25.02     -154.85     
 105.0000      -30.17     -108.53     -1.24     -145.78     -1.24     -145.77     -24.44     -150.57     
 110.0000      -27.4     -85.19     -1.34     -154.58     -1.34     -154.59     -23.15     -146.09     
 115.0000      -23.59     -76.3     -1.45     -163.81     -1.45     -163.81     -21.27     -143.99     
 120.0000      -20.16     -76.51     -1.6     -173.51     -1.6     -173.49     -19.14     -145.61     
 125.0000      -17.24     -81.02     -1.78     176.28     -1.78     176.28     -17     -150.46     
 130.0000      -14.77     -87.82     -2.01     165.45     -2.01     165.46     -14.97     -158.02     
 135.0000      -12.61     -96.06     -2.3     154.03     -2.3     154.05     -13.13     -167.58     
 140.0000      -10.78     -105.32     -2.67     141.94     -2.67     141.95     -11.52     -178.59     
 145.0000      -9.23     -115.28     -3.13     129.15     -3.13     129.14     -10.15     169.11     
 150.0000      -7.98     -125.66     -3.69     115.57     -3.69     115.58     -9.07     155.83     
 155.0000      -7.01     -136.05     -4.34     101.01     -4.34     101     -8.34     141.82     
 160.0000      -6.38     -145.96     -5.09     84.89     -5.09     84.88     -8.09     127.34     
 165.0000      -6.07     -154.39     -6     66.03     -6     66.06     -8.62     113.67     
 170.0000      -5.93     -159.13     -7.41     42.63     -7.41     42.6     -10.41     107.29     
 175.0000      -5.14     -160.26     -10.2     14.46     -10.19     14.43     -10.91     124.24     
 180.0000      -3.66     -165.93     -15.34     -10.32     -15.33     -10.34     -7.12     126.85     
 185.0000      -2.63     -176.01     -22.24     -18.82     -22.22     -18.91     -4.72     111.91     
 190.0000      -2.11     174.05     -28.54     -3.21     -28.51     -3.47     -3.61     96.3     
 195.0000      -1.83     165.3     -31.25     20.12     -31.24     20.02     -3.05     82.55     
 200.0000      -1.65     157.58     -32.41     31.16     -32.43     31.02     -2.71     70.36     
 205.0000      -1.53     150.67     -34.03     35.6     -34.01     35.51     -2.49     59.27     
 210.0000      -1.44     144.37     -36.36     39.55     -36.39     39.39     -2.32     49.01     
 215.0000      -1.37     138.57     -39.37     48.06     -39.4     47.41     -2.2     39.4     
 220.0000      -1.31     133.18     -42.32     67.15     -42.25     66.98     -2.1     30.25     
 225.0000      -1.27     128.14     -43.31     95.2     -43.32     94.88     -2.01     21.47     
 230.0000      -1.22     123.41     -41.94     116.21     -42.04     116.59     -1.94     13.01     
 235.0000      -1.18     118.92     -40.3     125.61     -40.29     125.9     -1.88     4.82     
 240.0000      -1.15     114.68     -38.95     129.15     -39.01     129.15     -1.82     -3.14     
 245.0000      -1.12     110.61     -38.07     129.25     -38.01     129.23     -1.77     -10.89     
 250.0000      -1.08     106.76     -37.48     127.45     -37.51     127.44     -1.73     -18.49     
 255.0000      -1.06     103.06     -37.13     125.12     -37.2     125.64     -1.69     -25.9     
 260.0000      -1.04     99.54     -37.24     122.69     -37.13     121.35     -1.65     -33.19     
 265.0000      -1.02     96.07     -37.14     119.02     -37.12     118.66     -1.62     -40.35     
 270.0000      -1     92.8     -37.45     115.62     -37.41     115.77     -1.59     -47.37     
 275.0000      -0.97     89.6     -37.87     112.1     -37.81     112.51     -1.56     -54.3     
 280.0000      -0.96     86.57     -38.41     108.89     -38.35     108.52     -1.53     -61.11     
 285.0000      -0.93     83.58     -39.03     105.63     -38.96     104.86     -1.51     -67.81     
 290.0000      -0.91     80.71     -39.94     103.08     -39.86     102.96     -1.49     -74.41     
 295.0000      -0.9     77.9     -40.73     99.45     -40.84     99.84     -1.46     -80.91     
 300.0000      -0.88     75.21     -41.85     97.18     -41.88     96.99     -1.45     -87.31     
 305.0000      -0.86     72.57     -43.02     95.08     -42.95     94.73     -1.44     -93.62     
 310.0000      -0.84     69.96     -44.32     93.82     -44.66     93.4     -1.42     -99.8     
 315.0000      -0.83     67.48     -46.1     93.33     -46.05     92.79     -1.41     -105.93     
 320.0000      -0.81     65.05     -47.95     93.86     -47.81     93.16     -1.39     -111.92     
 325.0000      -0.79     62.68     -50.39     98.64     -50.32     99.23     -1.38     -117.82     
 330.0000      -0.78     60.33     -52.59     107.88     -52.37     105.61     -1.38     -123.65     
 335.0000      -0.77     58.07     -55.19     126.23     -55.25     125.18     -1.36     -129.41     
 340.0000      -0.75     55.87     -55.93     151.21     -55.38     151.71     -1.35     -135.06     
 345.0000      -0.74     53.69     -54.5     173.65     -54.38     170.75     -1.34     -140.64     
 350.0000      -0.73     51.56     -51.85     -172.1     -52.36     -175.31     -1.34     -146.11     
 355.0000      -0.71     49.5     -50.76     -168.47     -50.42     -167.12     -1.33     -151.48     
 360.0000      -0.7     47.45     -48.9     -165.05     -48.96     -165.02     -1.32     -156.81     
 365.0000      -0.69     45.45     -47.72     -163.09     -47.84     -163.26     -1.32     -161.99     
 370.0000      -0.68     43.52     -46.72     -164.68     -46.93     -164.18     -1.31     -167.13     
 375.0000      -0.66     41.62     -45.88     -165.33     -45.98     -165.76     -1.3     -172.15     
 380.0000      -0.65     39.77     -45.19     -168     -45.27     -167.07     -1.29     -177.1     
 385.0000      -0.64     37.88     -44.47     -169.28     -44.49     -169.99     -1.28     178.02     
 390.0000      -0.62     36.09     -44.12     -171.01     -44.01     -171.27     -1.27     173.26     
 395.0000      -0.62     34.29     -43.67     -173.7     -43.65     -173.92     -1.26     168.54     
 400.0000      -0.6     32.55     -43.36     -176.57     -43.37     -175.35     -1.26     163.91     
 405.0000      -0.6     30.74     -43.03     -178.68     -43.15     -177.74     -1.25     159.38     
 410.0000      -0.59     29.05     -42.93     179.37     -42.85     179.64     -1.24     154.92     
 415.0000      -0.58     27.38     -42.68     176.64     -42.69     176.24     -1.24     150.53     
 420.0000      -0.56     25.7     -42.71     174.06     -42.69     173.63     -1.23     146.24     
 425.0000      -0.56     24.06     -42.53     172.53     -42.51     172.16     -1.22     142.02     
 430.0000      -0.56     22.43     -42.42     169.25     -42.37     169.3     -1.21     137.85     
 435.0000      -0.54     20.85     -42.43     167.08     -42.3     167.44     -1.2     133.77     
 440.0000      -0.54     19.25     -42.45     164.9     -42.38     164.87     -1.19     129.75     
 445.0000      -0.52     17.68     -42.46     163.15     -42.42     162.31     -1.18     125.78     
 450.0000      -0.52     16.19     -42.43     160.57     -42.33     159.72     -1.17     121.88     
 455.0000      -0.51     14.65     -42.48     158.17     -42.48     157.79     -1.15     118.01     
 460.0000      -0.51     13.18     -42.62     154.8     -42.52     155.53     -1.15     114.18     
 465.0000      -0.5     11.67     -42.69     153.11     -42.65     153.01     -1.14     110.43     
 470.0000      -0.49     10.19     -42.78     150.67     -42.76     150.09     -1.13     106.73     
 475.0000      -0.49     8.72     -42.99     148.83     -42.93     148.42     -1.12     103.09     
 480.0000      -0.48     7.32     -43.18     145.25     -43.2     146.26     -1.12     99.49     
 485.0000      -0.47     5.92     -43.35     144.1     -43.28     143.65     -1.1     95.95     
 490.0000      -0.47     4.52     -43.54     141.19     -43.57     141.47     -1.1     92.42     
 495.0000      -0.46     3.14     -43.76     139.59     -43.67     140.37     -1.09     88.96     
 500.0000      -0.45     1.76     -43.95     137.52     -43.84     137.35     -1.07     85.53     
 505.0000      -0.45     0.43     -44.15     135.25     -44.38     135.37     -1.07     82.13     
 510.0000      -0.44     -0.9     -44.54     132.98     -44.15     133.05     -1.06     78.81     
 515.0000      -0.44     -2.19     -44.76     130.62     -44.69     130.41     -1.04     75.52     
 520.0000      -0.43     -3.51     -44.92     129.35     -44.93     129.43     -1.04     72.23     
 525.0000      -0.43     -4.83     -45.31     127.8     -45.23     125.64     -1.03     69.01     
 530.0000      -0.42     -6.11     -45.47     125.61     -45.66     125.85     -1.02     65.82     
 535.0000      -0.42     -7.34     -45.69     122.67     -45.79     123.8     -1.01     62.65     
 540.0000      -0.41     -8.6     -46.31     121.32     -46.22     121.93     -1     59.51     
 545.0000      -0.4     -9.86     -46.75     119.79     -46.49     118.81     -0.99     56.43     
 550.0000      -0.4     -11.1     -46.98     118.44     -46.95     116.58     -0.98     53.35     
 555.0000      -0.39     -12.33     -47.17     115.22     -47.39     114.6     -0.97     50.31     
 560.0000      -0.39     -13.56     -47.62     113.42     -47.68     112.65     -0.96     47.28     
 565.0000      -0.39     -14.8     -48.16     112.08     -48.23     112.47     -0.96     44.26     
 570.0000      -0.38     -16.02     -48.49     109.69     -48.56     109.04     -0.95     41.32     
 575.0000      -0.38     -17.2     -49.07     108.56     -49.15     107.5     -0.94     38.36     
 580.0000      -0.38     -18.38     -49.49     108.67     -49.64     107.35     -0.94     35.42     
 585.0000      -0.37     -19.57     -50.3     106.1     -50.18     105.25     -0.93     32.51     
 590.0000      -0.37     -20.73     -50.53     104.03     -50.33     104.38     -0.92     29.6     
 595.0000      -0.37     -21.9     -50.99     103.69     -51.32     102.37     -0.92     26.76     
 600.0000      -0.37     -23.06     -51.75     101.36     -51.69     98.32     -0.91     23.85     
 605.0000      -0.37     -24.2     -52.44     98.99     -52.38     102.12     -0.91     21.05     
 610.0000      -0.36     -25.34     -53.56     98.92     -53.16     100.77     -0.9     18.2     
 615.0000      -0.36     -26.49     -53.73     98.97     -54.32     97.45     -0.89     15.38     
 620.0000      -0.36     -27.58     -55.28     97.5     -54.82     96.98     -0.88     12.56     
 625.0000      -0.35     -28.69     -56.08     94.84     -55.78     96.28     -0.88     9.74     
 630.0000      -0.35     -29.78     -56.37     92.95     -56.96     97.06     -0.87     6.94     
 635.0000      -0.35     -30.89     -58.15     95.6     -57.56     96.25     -0.87     4.13     
 640.0000      -0.34     -31.98     -59.09     96.04     -59.04     96.13     -0.87     1.36     
 645.0000      -0.34     -33.06     -60.3     101.2     -59.92     96.19     -0.86     -1.41     
 650.0000      -0.34     -34.16     -62.27     101.51     -60.9     103.08     -0.86     -4.18     
 655.0000      -0.34     -35.22     -63.31     108.13     -63.02     106.71     -0.85     -6.94     
 660.0000      -0.33     -36.27     -64.7     118.84     -64.34     113.59     -0.85     -9.69     
 665.0000      -0.33     -37.35     -66.4     128.24     -65.58     124.34     -0.84     -12.44     
 670.0000      -0.33     -38.39     -67.8     136.6     -69.19     142.08     -0.84     -15.16     
 675.0000      -0.33     -39.4     -68.41     179.83     -69.35     176.76     -0.84     -17.93     
 680.0000      -0.33     -40.45     -67.14     172.23     -66.28     -174.21     -0.84     -20.63     
 685.0000      -0.32     -41.5     -63.32     -164.44     -64.25     -158.99     -0.83     -23.37     
 690.0000      -0.32     -42.53     -63.34     -167.87     -63.34     -157.1     -0.83     -26.11     
 695.0000      -0.32     -43.53     -62.03     -154.51     -62.22     -151.04     -0.84     -28.83     
 700.0000      -0.32     -44.53     -60.42     -150.63     -60.67     -158.65     -0.83     -31.55     
 705.0000      -0.32     -45.53     -59.47     -146.73     -59.11     -149.87     -0.84     -34.27     
 710.0000      -0.32     -46.54     -58.05     -146.8     -58.42     -144.37     -0.83     -36.99     
 715.0000      -0.31     -47.54     -57.18     -148.82     -57.28     -147.93     -0.83     -39.7     
 720.0000      -0.31     -48.54     -56.94     -148.72     -56.58     -148.22     -0.84     -42.42     
 725.0000      -0.31     -49.51     -55.54     -147.02     -55.86     -150.57     -0.84     -45.15     
 730.0000      -0.31     -50.51     -55.36     -150.83     -55.23     -147.07     -0.84     -47.89     
 735.0000      -0.31     -51.5     -54.76     -152.61     -55.01     -149.04     -0.83     -50.64     
 740.0000      -0.31     -52.48     -54.37     -153.3     -54.31     -149.6     -0.84     -53.37     
 745.0000      -0.31     -53.45     -53.7     -154.39     -53.93     -153.78     -0.84     -56.13     
 750.0000      -0.31     -54.43     -53.2     -153.85     -53.19     -154.54     -0.84     -58.91     
 755.0000      -0.31     -55.42     -52.4     -155.88     -52.82     -155.26     -0.84     -61.69     
 760.0000      -0.3     -56.38     -52.39     -157.61     -52.27     -157.35     -0.85     -64.46     
 765.0000      -0.31     -57.33     -51.76     -158.3     -52.04     -159.89     -0.85     -67.24     
 770.0000      -0.31     -58.26     -51.66     -160.56     -51.72     -158.34     -0.85     -70.02     
 775.0000      -0.31     -59.18     -51.24     -160.41     -51.21     -161.25     -0.86     -72.84     
 780.0000      -0.31     -60.14     -50.92     -162.63     -50.86     -163.19     -0.86     -75.64     
 785.0000      -0.3     -61.07     -50.51     -164.73     -50.42     -165.35     -0.86     -78.45     
 790.0000      -0.3     -61.98     -50.48     -167.01     -50.3     -166.25     -0.87     -81.27     
 795.0000      -0.3     -62.9     -49.9     -167.23     -49.78     -169.6     -0.87     -84.13     
 800.0000      -0.3     -63.86     -49.77     -170.47     -49.93     -170.45     -0.88     -86.96     
 805.0000      -0.3     -64.76     -49.49     -171.02     -49.52     -170.79     -0.89     -89.81     
 810.0000      -0.3     -65.66     -49.34     -173.57     -49.33     -173.73     -0.89     -92.67     
 815.0000      -0.3     -66.6     -49.09     -174.66     -49.03     -174.37     -0.9     -95.55     
 820.0000      -0.3     -67.5     -48.94     -176.22     -48.83     -176.46     -0.9     -98.42     
 825.0000      -0.29     -68.4     -48.62     -177.97     -48.57     -177.88     -0.91     -101.33     
 830.0000      -0.3     -69.31     -48.35     -179.88     -48.63     178.95     -0.92     -104.22     
 835.0000      -0.29     -70.2     -48.4     177.92     -48.27     177.42     -0.92     -107.14     
 840.0000      -0.3     -71.11     -48.11     176.25     -48.3     176.97     -0.93     -110.06     
 845.0000      -0.3     -71.97     -48     175.02     -47.96     174.39     -0.94     -112.98     
 850.0000      -0.3     -72.87     -47.82     173.96     -47.85     173.02     -0.95     -115.92     
 855.0000      -0.3     -73.75     -47.8     170.65     -47.71     170.03     -0.95     -118.89     
 860.0000      -0.29     -74.64     -47.57     169.84     -47.62     168.46     -0.96     -121.85     
 865.0000      -0.3     -75.5     -47.46     167.32     -47.4     168.04     -0.97     -124.85     
 870.0000      -0.3     -76.38     -47.41     165.32     -47.45     166.09     -0.98     -127.84     
 875.0000      -0.3     -77.28     -47.16     163.42     -47.26     162.97     -0.99     -130.84     
 880.0000      -0.29     -78.13     -47.07     161.87     -47.14     161.05     -1     -133.89     
 885.0000      -0.3     -79.01     -47.16     160.21     -47.1     159.46     -1.01     -136.92     
 890.0000      -0.3     -79.83     -47.05     158.16     -46.96     158.92     -1.01     -139.98     
 895.0000      -0.3     -80.71     -46.88     156.04     -46.86     156.05     -1.02     -143.03     
 900.0000      -0.3     -81.58     -46.7     154.76     -46.79     154.23     -1.03     -146.1     
 905.0000      -0.3     -82.4     -46.74     152.92     -46.87     152.58     -1.04     -149.18     
 910.0000      -0.3     -83.25     -46.76     150.2     -46.7     150.61     -1.05     -152.26     
 915.0000      -0.3     -84.12     -46.65     149.09     -46.72     148.31     -1.06     -155.35     
 920.0000      -0.3     -84.98     -46.51     146.76     -46.51     147.19     -1.06     -158.5     
 925.0000      -0.3     -85.83     -46.49     145.41     -46.49     146.12     -1.07     -161.59     
 930.0000      -0.3     -86.66     -46.3     143.55     -46.39     143.48     -1.08     -164.74     
 935.0000      -0.3     -87.52     -46.46     141.46     -46.43     141.04     -1.09     -167.88     
 940.0000      -0.3     -88.36     -46.41     139.93     -46.37     139.85     -1.1     -170.99     
 945.0000      -0.3     -89.19     -46.33     137.88     -46.29     137.78     -1.1     -174.14     
 950.0000      -0.3     -90.02     -46.27     135.5     -46.4     136.38     -1.11     -177.27     
 955.0000      -0.3     -90.86     -46.45     133.72     -46.36     134.25     -1.12     179.57     
 960.0000      -0.3     -91.68     -46.31     131.59     -46.38     132.27     -1.13     176.43     
