! Mini-Circuits								
! S2P DATA File Format								
! Type: LOW PASS FILTER								
! Model: VLFX-300+								
! All S Parameters are in dB deg format								
! TEST CONDITIONS: INPUT POWER = -10 dBm @ Temperature = +25deg C								
!								
# MHz S DB R 50								
!Frequency        S11 dB  S11 DEG   S21 dB  S21 DEG   S12 dB  S12 DEG   S22 dB  S22 DEG								
10	-34.331	23.977	-0.156	-6.377	-0.153	-6.404	-33.696	21.417
15	-33.119	11.153	-0.173	-9.406	-0.175	-9.4	-32.744	10.943
20	-32.647	4.583	-0.191	-12.4	-0.193	-12.415	-33.132	6.742
25	-32.235	0.989	-0.206	-15.422	-0.207	-15.427	-33.263	3.827
30	-31.646	-0.795	-0.22	-18.445	-0.219	-18.451	-32.908	3.335
35	-31.063	-3.427	-0.237	-21.448	-0.235	-21.452	-32.709	2.229
40	-30.398	-6.309	-0.252	-24.426	-0.251	-24.436	-32.477	-0.424
45	-29.721	-10.761	-0.265	-27.402	-0.264	-27.404	-32.24	-4.095
50	-29.217	-15.842	-0.272	-30.375	-0.273	-30.39	-31.972	-8.159
55	-28.62	-19.943	-0.286	-33.358	-0.286	-33.357	-32.296	-11.819
60	-28.195	-24.523	-0.298	-36.353	-0.299	-36.36	-32.58	-15.241
65	-27.811	-28.71	-0.31	-39.348	-0.308	-39.348	-32.943	-18.631
70	-27.431	-32.76	-0.322	-42.334	-0.32	-42.338	-33.299	-21.654
75	-27.065	-36.596	-0.335	-45.323	-0.331	-45.328	-33.588	-24.519
80	-26.685	-40.406	-0.343	-48.317	-0.343	-48.308	-34.081	-27.434
85	-26.301	-44.366	-0.355	-51.305	-0.354	-51.31	-34.57	-29.966
90	-25.897	-48.439	-0.366	-54.307	-0.364	-54.305	-35.174	-33.484
95	-25.561	-52.223	-0.377	-57.32	-0.375	-57.322	-35.967	-37.226
100	-25.231	-56.274	-0.389	-60.341	-0.386	-60.338	-36.819	-41.807
105	-24.948	-59.981	-0.398	-63.354	-0.397	-63.35	-38.082	-45.968
110	-24.689	-63.73	-0.408	-66.37	-0.409	-66.376	-39.667	-49.062
115	-24.435	-67.237	-0.42	-69.404	-0.419	-69.402	-41.28	-53.436
120	-24.212	-70.692	-0.43	-72.437	-0.431	-72.437	-43.52	-57.913
125	-23.962	-74.28	-0.441	-75.486	-0.441	-75.473	-46.45	-63.17
130	-23.751	-77.774	-0.454	-78.529	-0.452	-78.528	-50.992	-73.225
135	-23.535	-81.224	-0.466	-81.585	-0.465	-81.589	-59.722	-115.489
140	-23.325	-84.917	-0.477	-84.656	-0.474	-84.653	-55.704	144.406
145	-23.177	-88.309	-0.489	-87.729	-0.487	-87.725	-48.251	128.865
150	-23.022	-91.688	-0.5	-90.814	-0.499	-90.81	-44.298	118.578
155	-22.904	-95.165	-0.512	-93.907	-0.511	-93.906	-41.625	113.912
160	-22.816	-98.526	-0.524	-97.02	-0.522	-97.015	-39.545	109.269
165	-22.738	-101.978	-0.535	-100.132	-0.533	-100.135	-37.99	105.247
170	-22.657	-105.177	-0.548	-103.269	-0.546	-103.262	-36.704	101.562
175	-22.611	-108.424	-0.56	-106.41	-0.557	-106.407	-35.557	98.153
180	-22.602	-111.717	-0.571	-109.558	-0.57	-109.562	-34.624	94.788
185	-22.578	-115.015	-0.583	-112.737	-0.583	-112.737	-33.805	92.144
190	-22.607	-118.255	-0.596	-115.92	-0.595	-115.926	-33.125	88.931
195	-22.666	-121.507	-0.608	-119.125	-0.607	-119.123	-32.464	86.302
200	-22.773	-124.696	-0.62	-122.335	-0.62	-122.338	-31.973	82.761
205	-22.882	-127.781	-0.633	-125.57	-0.632	-125.571	-31.551	80.17
210	-23.058	-130.776	-0.644	-128.816	-0.644	-128.823	-31.218	77.155
215	-23.224	-133.794	-0.658	-132.087	-0.657	-132.092	-30.955	74.322
220	-23.449	-136.703	-0.671	-135.378	-0.669	-135.379	-30.728	72.017
225	-23.722	-139.711	-0.683	-138.688	-0.683	-138.681	-30.557	69.615
230	-24.036	-142.521	-0.697	-142.018	-0.696	-142.015	-30.49	67.278
235	-24.427	-145.314	-0.71	-145.368	-0.708	-145.372	-30.464	65.323
240	-24.867	-148.043	-0.725	-148.743	-0.723	-148.752	-30.491	63.04
245	-25.362	-150.424	-0.737	-152.15	-0.736	-152.152	-30.635	61.687
250	-25.963	-152.875	-0.753	-155.578	-0.751	-155.575	-30.907	60.234
255	-26.686	-154.679	-0.765	-159.04	-0.764	-159.039	-31.176	58.957
260	-27.49	-156.262	-0.779	-162.528	-0.778	-162.513	-31.568	58.643
265	-28.455	-157.069	-0.795	-166.046	-0.793	-166.052	-32.092	59.674
270	-29.596	-156.577	-0.809	-169.59	-0.809	-169.595	-32.689	61.062
275	-31.062	-155.395	-0.824	-173.18	-0.824	-173.177	-33.306	64.092
280	-32.859	-151.04	-0.84	-176.797	-0.84	-176.799	-34.022	69.485
285	-34.763	-141.466	-0.857	179.54	-0.857	179.545	-34.586	76.829
290	-36.408	-122.804	-0.876	175.849	-0.874	175.843	-34.794	87.163
295	-36.329	-96.929	-0.893	172.104	-0.894	172.107	-34.414	99.103
300	-34.38	-76.77	-0.913	168.33	-0.914	168.334	-33.541	110.174
305	-31.791	-65.202	-0.935	164.508	-0.934	164.499	-32.1	119.293
310	-29.453	-60.068	-0.958	160.635	-0.957	160.633	-30.581	124.894
315	-27.431	-58.67	-0.98	156.714	-0.981	156.705	-28.983	128.815
320	-25.629	-58.64	-1.006	152.741	-1.006	152.735	-27.447	130.871
325	-24.067	-59.913	-1.034	148.709	-1.033	148.713	-25.982	131.3
330	-22.672	-62.12	-1.063	144.636	-1.063	144.632	-24.628	130.902
335	-21.388	-64.715	-1.096	140.495	-1.095	140.498	-23.328	129.748
340	-20.254	-67.767	-1.13	136.289	-1.131	136.287	-22.121	127.957
345	-19.202	-71.293	-1.169	132.038	-1.168	132.036	-21.003	125.83
350	-18.236	-74.874	-1.209	127.71	-1.209	127.701	-19.94	123.156
355	-17.334	-78.712	-1.253	123.308	-1.254	123.311	-18.962	120.375
360	-16.508	-82.733	-1.303	118.84	-1.303	118.835	-18.019	117.358
365	-15.729	-86.976	-1.356	114.305	-1.355	114.298	-17.153	114.01
370	-15.005	-91.302	-1.414	109.681	-1.412	109.678	-16.322	110.595
375	-14.328	-95.804	-1.477	104.985	-1.475	104.98	-15.533	107.059
380	-13.696	-100.513	-1.542	100.2	-1.541	100.208	-14.794	103.366
385	-13.104	-105.302	-1.613	95.338	-1.615	95.344	-14.103	99.548
390	-12.568	-110.325	-1.692	90.384	-1.691	90.395	-13.438	95.656
395	-12.065	-115.412	-1.776	85.348	-1.775	85.343	-12.819	91.656
400	-11.608	-120.728	-1.865	80.197	-1.863	80.2	-12.234	87.641
405	-11.191	-126.156	-1.96	74.954	-1.959	74.961	-11.692	83.573
410	-10.817	-131.863	-2.063	69.61	-2.06	69.603	-11.184	79.483
415	-10.487	-137.666	-2.168	64.124	-2.169	64.127	-10.705	75.358
420	-10.21	-143.737	-2.279	58.525	-2.282	58.523	-10.263	71.228
425	-9.978	-150.049	-2.4	52.772	-2.4	52.779	-9.853	67.119
430	-9.807	-156.664	-2.524	46.864	-2.524	46.87	-9.478	63.015
435	-9.699	-163.572	-2.654	40.762	-2.654	40.758	-9.136	58.977
440	-9.665	-170.884	-2.792	34.453	-2.793	34.459	-8.823	55.059
445	-9.723	-178.691	-2.937	27.908	-2.936	27.9	-8.54	51.226
450	-9.888	172.914	-3.091	21.06	-3.09	21.061	-8.283	47.604
455	-10.184	163.725	-3.259	13.894	-3.258	13.886	-8.05	44.177
460	-10.66	153.478	-3.444	6.323	-3.443	6.336	-7.82	41.026
465	-11.363	141.731	-3.657	-1.695	-3.655	-1.684	-7.59	38.219
470	-12.37	127.74	-3.909	-10.246	-3.907	-10.239	-7.341	35.73
475	-13.772	109.999	-4.213	-19.395	-4.212	-19.383	-7.036	33.538
480	-15.543	85.413	-4.602	-29.192	-4.601	-29.196	-6.656	31.528
485	-17.038	49.319	-5.103	-39.643	-5.103	-39.641	-6.176	29.443
490	-16.471	4.764	-5.753	-50.691	-5.752	-50.683	-5.599	26.935
495	-13.897	-32.189	-6.588	-62.138	-6.588	-62.149	-4.961	23.733
500	-11.16	-58.64	-7.638	-73.766	-7.637	-73.762	-4.312	19.673
505	-8.925	-78.985	-8.909	-85.234	-8.91	-85.242	-3.704	14.797
510	-7.212	-95.876	-10.404	-96.238	-10.403	-96.227	-3.176	9.342
515	-5.928	-110.505	-12.096	-106.506	-12.098	-106.52	-2.746	3.549
520	-4.971	-123.422	-13.961	-115.91	-13.963	-115.905	-2.406	-2.349
525	-4.251	-134.937	-15.976	-124.327	-15.977	-124.335	-2.143	-8.183
530	-3.714	-145.283	-18.124	-131.775	-18.124	-131.77	-1.942	-13.891
535	-3.303	-154.656	-20.398	-138.208	-20.4	-138.224	-1.792	-19.413
540	-2.989	-163.195	-22.805	-143.58	-22.808	-143.583	-1.676	-24.752
545	-2.744	-171.07	-25.358	-147.813	-25.361	-147.799	-1.584	-29.921
550	-2.551	-178.356	-28.084	-150.653	-28.084	-150.678	-1.511	-34.919
555	-2.396	174.871	-31.022	-151.667	-31.028	-151.744	-1.456	-39.758
560	-2.273	168.495	-34.186	-150.128	-34.184	-150.116	-1.408	-44.483
565	-2.167	162.47	-37.575	-144.468	-37.553	-144.576	-1.368	-49.099
570	-2.083	156.747	-40.895	-132.554	-40.928	-132.408	-1.338	-53.618
575	-2.01	151.292	-43.454	-112.851	-43.433	-112.955	-1.31	-58.044
580	-1.948	146.074	-44.404	-91.744	-44.382	-91.971	-1.288	-62.403
585	-1.896	141.05	-44.225	-76.638	-44.201	-76.558	-1.269	-66.686
590	-1.85	136.211	-43.852	-67.179	-43.827	-66.86	-1.253	-70.92
595	-1.808	131.521	-43.73	-62.084	-43.727	-61.864	-1.238	-75.088
600	-1.774	126.975	-43.913	-58.745	-43.924	-58.731	-1.229	-79.214
605	-1.739	122.566	-44.415	-56.375	-44.354	-56.305	-1.22	-83.298
610	-1.712	118.268	-45.132	-53.822	-45.183	-54.008	-1.212	-87.344
615	-1.684	114.071	-46.185	-50.706	-46.161	-50.525	-1.206	-91.359
620	-1.659	109.977	-47.497	-45.152	-47.45	-45.285	-1.201	-95.331
625	-1.638	105.979	-48.846	-36.881	-48.929	-36.77	-1.198	-99.277
630	-1.617	102.05	-50.224	-23.153	-50.097	-23.803	-1.195	-103.199
635	-1.595	98.224	-50.725	-6.801	-50.768	-7.428	-1.195	-107.092
640	-1.577	94.471	-50.251	10.644	-50.224	10.527	-1.194	-110.951
645	-1.558	90.765	-48.961	24.096	-48.987	24.45	-1.195	-114.8
650	-1.541	87.118	-47.502	32.549	-47.47	33.172	-1.196	-118.617
655	-1.522	83.568	-46.033	38.067	-46.019	37.701	-1.198	-122.42
660	-1.507	80.054	-44.781	40.384	-44.793	40.633	-1.2	-126.212
665	-1.491	76.603	-43.638	41.698	-43.653	41.552	-1.203	-129.976
670	-1.474	73.19	-42.651	41.637	-42.684	41.646	-1.207	-133.709
675	-1.456	69.839	-41.847	40.74	-41.863	40.924	-1.21	-137.437
680	-1.442	66.545	-41.146	39.551	-41.148	39.454	-1.214	-141.138
685	-1.424	63.298	-40.517	38.13	-40.55	38.193	-1.216	-144.836
690	-1.409	60.083	-40.02	36.363	-40.018	36.225	-1.221	-148.506
695	-1.395	56.922	-39.581	34.264	-39.606	34.267	-1.225	-152.156
700	-1.378	53.808	-39.233	32.025	-39.257	32.073	-1.23	-155.8
705	-1.362	50.717	-38.905	29.866	-38.89	29.82	-1.233	-159.418
710	-1.346	47.694	-38.635	27.508	-38.636	27.576	-1.236	-163.051
715	-1.331	44.705	-38.413	24.957	-38.406	25.034	-1.24	-166.614
720	-1.314	41.743	-38.215	22.557	-38.243	22.463	-1.245	-170.196
725	-1.3	38.815	-38.087	20.059	-38.114	19.966	-1.246	-173.744
730	-1.283	35.939	-38.003	17.537	-38	17.512	-1.25	-177.294
735	-1.269	33.099	-37.949	15.008	-37.919	14.865	-1.252	179.188
740	-1.251	30.281	-37.896	12.468	-37.903	12.258	-1.255	175.69
745	-1.238	27.517	-37.909	9.811	-37.899	9.689	-1.258	172.208
750	-1.222	24.773	-37.942	7.122	-37.904	7.17	-1.261	168.744
755	-1.207	22.058	-37.978	4.587	-37.969	4.648	-1.262	165.292
760	-1.191	19.408	-38.046	2.137	-38.042	1.97	-1.264	161.871
765	-1.178	16.768	-38.137	-0.712	-38.137	-0.544	-1.266	158.462
770	-1.162	14.158	-38.251	-3.071	-38.247	-3.186	-1.267	155.068
775	-1.149	11.587	-38.389	-5.735	-38.364	-5.537	-1.267	151.705
780	-1.134	9.04	-38.53	-8.233	-38.534	-8.185	-1.269	148.347
785	-1.119	6.524	-38.703	-10.652	-38.696	-10.816	-1.269	145.007
790	-1.105	4.048	-38.915	-13.373	-38.893	-13.174	-1.27	141.693
795	-1.091	1.602	-39.111	-15.736	-39.094	-15.886	-1.271	138.393
800	-1.077	-0.811	-39.336	-18.14	-39.331	-18.353	-1.27	135.114
805	-1.064	-3.204	-39.607	-20.462	-39.625	-20.527	-1.27	131.86
810	-1.05	-5.558	-39.875	-22.942	-39.853	-22.982	-1.27	128.616
815	-1.035	-7.882	-40.125	-25.522	-40.136	-25.481	-1.269	125.378
820	-1.021	-10.192	-40.467	-27.854	-40.475	-27.709	-1.268	122.18
825	-1.006	-12.452	-40.739	-30.05	-40.765	-30.208	-1.266	118.996
830	-0.992	-14.7	-41.129	-32.292	-41.117	-32.137	-1.265	115.835
835	-0.98	-16.921	-41.486	-34.901	-41.485	-34.587	-1.264	112.685
840	-0.966	-19.102	-41.822	-36.786	-41.874	-36.99	-1.261	109.561
845	-0.95	-21.264	-42.263	-39.108	-42.24	-39.043	-1.259	106.454
850	-0.939	-23.4	-42.672	-41.375	-42.663	-41.328	-1.256	103.374
855	-0.926	-25.517	-43.123	-43.162	-43.108	-43.059	-1.255	100.293
860	-0.914	-27.608	-43.573	-45.289	-43.511	-45.347	-1.248	97.256
865	-0.901	-29.676	-44.026	-47.192	-44.032	-47.388	-1.246	94.227
870	-0.889	-31.714	-44.583	-49.296	-44.596	-49.383	-1.242	91.221
875	-0.877	-33.741	-45.134	-51.137	-45.144	-51.148	-1.237	88.232
880	-0.863	-35.729	-45.677	-52.953	-45.697	-53.029	-1.234	85.266
885	-0.854	-37.703	-46.262	-54.291	-46.27	-54.653	-1.228	82.314
890	-0.841	-39.652	-46.937	-56.164	-46.978	-55.794	-1.227	79.384
895	-0.832	-41.575	-47.587	-57.944	-47.592	-57.754	-1.223	76.464
900	-0.818	-43.476	-48.306	-59.188	-48.311	-59.25	-1.216	73.579
905	-0.812	-45.362	-49.085	-59.891	-49.09	-60.234	-1.213	70.688
910	-0.799	-47.222	-49.933	-60.514	-49.901	-60.967	-1.21	67.826
915	-0.789	-49.055	-50.739	-61.777	-50.802	-61.361	-1.204	64.97
920	-0.78	-50.875	-51.826	-62.11	-51.854	-62.25	-1.199	62.142
925	-0.77	-52.66	-52.813	-61.306	-52.861	-61.455	-1.196	59.327
930	-0.762	-54.44	-53.95	-60.514	-53.792	-60.925	-1.191	56.517
935	-0.752	-56.193	-55.321	-58.787	-55.154	-58.237	-1.187	53.724
940	-0.742	-57.926	-56.291	-56.567	-56.472	-56.341	-1.182	50.948
945	-0.734	-59.648	-57.892	-51.894	-57.799	-51.955	-1.177	48.193
950	-0.724	-61.332	-59.225	-46.592	-59.361	-46.692	-1.172	45.441
955	-0.716	-63.013	-60.6	-35.199	-60.56	-34.035	-1.167	42.714
960	-0.707	-64.677	-61.636	-20.491	-61.282	-20.642	-1.163	40.003
965	-0.697	-66.316	-61.811	-7.315	-61.723	-6.54	-1.157	37.291
970	-0.689	-67.939	-61.473	8.551	-61.597	8.746	-1.155	34.587
975	-0.68	-69.544	-60.581	20.501	-60.354	19.469	-1.15	31.893
980	-0.671	-71.142	-59.193	26.728	-59.049	28.492	-1.145	29.225
985	-0.665	-72.719	-58.04	33.517	-57.92	33.377	-1.141	26.555
990	-0.656	-74.273	-56.999	36.423	-56.994	35.964	-1.136	23.909
995	-0.649	-75.807	-55.873	38.736	-55.842	38.191	-1.133	21.263
1000	-0.641	-77.344	-54.954	39.169	-54.947	39.099	-1.129	18.623
1005	-0.636	-78.857	-54.272	40.09	-54.111	40.499	-1.123	16.006
1010	-0.628	-80.357	-53.33	40.124	-53.33	40.122	-1.12	13.385
1015	-0.62	-81.836	-52.855	39.45	-52.66	40.097	-1.119	10.762
1020	-0.613	-83.3	-52.075	39.086	-52.102	39.158	-1.116	8.172
1025	-0.608	-84.743	-51.519	38.709	-51.744	38.654	-1.11	5.58
1030	-0.6	-86.188	-51.138	37.33	-51.042	37.686	-1.109	2.993
1035	-0.595	-87.618	-50.698	36.639	-50.61	36.427	-1.106	0.416
1040	-0.589	-89.035	-50.255	35.16	-50.328	35.011	-1.104	-2.141
1045	-0.582	-90.414	-49.832	34.057	-49.902	34.538	-1.104	-4.708
1050	-0.577	-91.807	-49.53	32.941	-49.5	33.202	-1.102	-7.261
1055	-0.571	-93.177	-49.214	31.293	-49.207	31.138	-1.101	-9.822
1060	-0.564	-94.513	-48.906	29.81	-48.956	30.086	-1.099	-12.365
1065	-0.559	-95.859	-48.657	28.609	-48.626	28.385	-1.097	-14.911
1070	-0.554	-97.186	-48.36	27.126	-48.327	26.984	-1.097	-17.444
1075	-0.548	-98.501	-48.169	24.955	-48.008	25.382	-1.099	-19.98
1080	-0.543	-99.798	-47.874	23.856	-47.909	23.915	-1.097	-22.524
1085	-0.537	-101.095	-47.612	22.546	-47.689	21.572	-1.097	-25.048
1090	-0.532	-102.377	-47.49	20.391	-47.485	20.849	-1.097	-27.577
1095	-0.527	-103.634	-47.304	19.266	-47.262	18.843	-1.097	-30.104
1100	-0.523	-104.88	-47.106	17.472	-47.129	17.359	-1.1	-32.642
1105	-0.519	-106.13	-46.903	15.309	-46.962	16.007	-1.1	-35.172
1110	-0.514	-107.371	-46.798	14.188	-46.824	14.206	-1.101	-37.686
1115	-0.509	-108.589	-46.642	12.453	-46.638	12.36	-1.102	-40.232
1120	-0.506	-109.804	-46.577	10.586	-46.566	10.501	-1.103	-42.758
1125	-0.503	-111.005	-46.423	8.925	-46.455	8.929	-1.107	-45.289
1130	-0.498	-112.192	-46.301	6.968	-46.278	7.331	-1.11	-47.831
1135	-0.492	-113.379	-46.147	5.547	-46.166	5.739	-1.112	-50.373
1140	-0.49	-114.556	-46.057	3.835	-46.08	4.11	-1.117	-52.912
1145	-0.485	-115.714	-45.986	2.226	-46.01	1.63	-1.12	-55.458
1150	-0.482	-116.866	-45.945	0.237	-45.867	0.189	-1.123	-57.997
1155	-0.477	-118.014	-45.806	-1.307	-45.825	-1.45	-1.127	-60.555
1160	-0.473	-119.144	-45.758	-2.89	-45.743	-2.889	-1.132	-63.11
1165	-0.47	-120.275	-45.646	-4.746	-45.65	-4.759	-1.138	-65.666
1170	-0.466	-121.397	-45.595	-6.483	-45.576	-6.634	-1.142	-68.224
1175	-0.462	-122.507	-45.542	-8.245	-45.55	-8.31	-1.148	-70.801
1180	-0.459	-123.61	-45.495	-9.943	-45.498	-9.925	-1.155	-73.376
1185	-0.455	-124.703	-45.434	-11.63	-45.417	-11.804	-1.16	-75.951
1190	-0.451	-125.781	-45.414	-13.509	-45.395	-13.379	-1.167	-78.538
1195	-0.448	-126.854	-45.378	-15.119	-45.388	-15.282	-1.174	-81.13
1200	-0.446	-127.92	-45.31	-17.247	-45.302	-16.659	-1.182	-83.728
1205	-0.441	-128.965	-45.316	-18.867	-45.268	-18.685	-1.187	-86.329
1210	-0.439	-130.027	-45.244	-20.645	-45.245	-20.864	-1.196	-88.941
1215	-0.435	-131.05	-45.221	-22.041	-45.209	-22.348	-1.204	-91.578
1220	-0.434	-132.083	-45.203	-24.079	-45.136	-24.209	-1.211	-94.185
1225	-0.431	-133.101	-45.167	-25.459	-45.203	-25.74	-1.22	-96.834
1230	-0.429	-134.112	-45.184	-27.459	-45.159	-27.771	-1.229	-99.474
1235	-0.426	-135.125	-45.146	-29.484	-45.169	-29.427	-1.238	-102.126
1240	-0.424	-136.122	-45.102	-31.305	-45.144	-30.943	-1.249	-104.802
1245	-0.423	-137.112	-45.096	-32.655	-45.099	-32.907	-1.258	-107.477
1250	-0.419	-138.097	-45.099	-34.889	-45.122	-34.11	-1.269	-110.16
1255	-0.417	-139.084	-45.128	-36.478	-45.119	-36.554	-1.278	-112.854
1260	-0.415	-140.05	-45.085	-38.542	-45.15	-37.999	-1.289	-115.559
1265	-0.413	-141.031	-45.089	-40.054	-45.088	-39.988	-1.301	-118.291
1270	-0.411	-141.991	-45.13	-41.879	-45.158	-41.575	-1.311	-121.012
1275	-0.406	-142.946	-45.146	-43.501	-45.124	-43.421	-1.323	-123.759
1280	-0.403	-143.902	-45.094	-45.214	-45.13	-45.6	-1.335	-126.508
1285	-0.404	-144.843	-45.156	-47.112	-45.152	-47.03	-1.348	-129.284
1290	-0.401	-145.782	-45.165	-48.734	-45.168	-48.916	-1.362	-132.066
1295	-0.4	-146.712	-45.167	-50.991	-45.176	-50.863	-1.374	-134.859
1300	-0.397	-147.642	-45.158	-52.987	-45.22	-52.754	-1.386	-137.676
1305	-0.395	-148.556	-45.204	-54.578	-45.161	-54.58	-1.4	-140.493
1310	-0.393	-149.478	-45.247	-56.48	-45.244	-56.286	-1.414	-143.323
1315	-0.392	-150.387	-45.275	-58.149	-45.239	-58.263	-1.426	-146.174
1320	-0.388	-151.282	-45.294	-60.241	-45.246	-59.826	-1.44	-149.032
1325	-0.387	-152.179	-45.314	-61.529	-45.277	-61.488	-1.453	-151.908
1330	-0.384	-153.071	-45.317	-63.606	-45.352	-63.552	-1.468	-154.799
1335	-0.383	-153.951	-45.335	-65.553	-45.368	-65.401	-1.481	-157.699
1340	-0.382	-154.839	-45.429	-67.35	-45.404	-67.302	-1.495	-160.618
1345	-0.379	-155.705	-45.399	-69.212	-45.422	-69.295	-1.51	-163.543
1350	-0.378	-156.582	-45.445	-71.226	-45.444	-71.551	-1.524	-166.496
1355	-0.376	-157.436	-45.463	-73.344	-45.494	-72.933	-1.539	-169.449
1360	-0.374	-158.295	-45.457	-74.862	-45.492	-74.748	-1.552	-172.418
1365	-0.372	-159.15	-45.561	-76.946	-45.565	-76.614	-1.566	-175.404
1370	-0.372	-159.999	-45.591	-78.455	-45.58	-78.371	-1.58	-178.407
1375	-0.369	-160.841	-45.649	-80.515	-45.678	-80.633	-1.596	178.583
1380	-0.367	-161.676	-45.664	-82.375	-45.735	-82.446	-1.608	175.558
1385	-0.365	-162.524	-45.728	-83.871	-45.731	-84.376	-1.623	172.514
1390	-0.363	-163.357	-45.799	-85.94	-45.784	-86.081	-1.637	169.462
1395	-0.361	-164.179	-45.879	-87.876	-45.801	-87.792	-1.651	166.389
1400	-0.359	-164.998	-45.826	-89.702	-45.878	-90.203	-1.664	163.3
1405	-0.359	-165.805	-45.958	-92.004	-45.908	-91.972	-1.678	160.212
1410	-0.358	-166.628	-45.975	-93.27	-46.02	-93.555	-1.691	157.092
1415	-0.357	-167.441	-46.038	-95.672	-46.073	-95.705	-1.705	153.976
1420	-0.355	-168.235	-46.076	-97.55	-46.109	-97.488	-1.719	150.838
1425	-0.354	-169.044	-46.143	-99.4	-46.152	-99.732	-1.73	147.685
1430	-0.354	-169.83	-46.206	-101.494	-46.235	-101.377	-1.743	144.518
1435	-0.352	-170.615	-46.291	-103.021	-46.273	-103.303	-1.756	141.348
1440	-0.351	-171.402	-46.274	-105.272	-46.311	-105.197	-1.765	138.167
1445	-0.35	-172.186	-46.365	-107.745	-46.381	-107.23	-1.777	134.956
1450	-0.348	-172.97	-46.415	-108.94	-46.452	-108.971	-1.789	131.744
1455	-0.346	-173.744	-46.484	-110.584	-46.598	-111.127	-1.8	128.529
1460	-0.344	-174.503	-46.573	-113.365	-46.604	-112.808	-1.809	125.297
1465	-0.345	-175.273	-46.665	-114.888	-46.638	-114.642	-1.82	122.058
1470	-0.342	-176.043	-46.72	-116.449	-46.698	-116.927	-1.828	118.797
1475	-0.341	-176.798	-46.768	-118.634	-46.79	-118.65	-1.836	115.544
1480	-0.341	-177.555	-46.854	-120.674	-46.834	-120.499	-1.845	112.269
1485	-0.339	-178.306	-46.911	-122.509	-46.954	-122.808	-1.855	108.985
1490	-0.338	-179.063	-47.062	-124.627	-46.956	-124.828	-1.864	105.698
